
================================================================
HEX PORT_LOGGING started on Mon Dec 17 12:58:23 2012
 for FieldServer with IP 10.10.11.2
     [       ] RX : 44 C5 2D BE 

  82 [     82] TX : 15 03 02 A0 00 0C 47 41 
  58 [    140] RX : 15 03 18 5D BF 46 0B 7E C1 42 C2 81 5C 41 06 DB ED C0 93 7F CC 41 1D A0 28 3F 5A C2 A1 

 100 [    241] TX : 16 03 02 A0 00 0C 47 72 
 299 [    540] RX : 16 03 18 B5 E5 45 56 CE 14 43 3C 3F 62 40 C1 83 62 C0 4B 93 D5 40 DB 4D 7A 3F 61 DE 02 

 100 [    641] TX : 15 03 02 AC 00 0C 87 42 
 179 [    820] RX : 15 03 18 BD 29 45 BE AB 15 42 B9 06 0E 40 D4 0C A4 C0 5F 14 93 40 FA 0A DE 3F 59 14 96 

 101 [    921] TX : 16 03 02 AC 00 0C 87 71 
  59 [    980] RX : 16 03 18 CE 94 46 2E 2C 02 41 CB 9A A8 3E AC EA 1A 3E 2C 5F CF 3E C4 03 31 3F 61 C4 7B 

 101 [   1081] TX : 15 03 01 62 00 02 67 3D 
  29 [   1110] RX : 15 03 04 09 65 42 70 8C F5 

 101 [   1211] TX : 16 03 02 B8 00 0C C7 75 
 349 [   1560] RX : 16 03 18 60 CD 44 A0 E9 79 36 AE 1C 0B 41 6E EB 8A C0 FA 19 7E 41 87 98 C2 3F 61 38 C9 

 101 [   1661] TX : 15 03 01 6A 00 06 E7 3C 
 159 [   1820] RX : 15 03 0C E2 17 42 F2 26 09 42 F3 25 5D 42 F2 37 76 

 100 [   1920] TX : 16 03 01 62 00 02 67 0E 
  30 [   1950] RX : 16 03 04 09 F2 42 70 0E 19 

 101 [   2051] TX : 17 03 02 88 00 0C C6 AB 
 158 [   2210] RX : 17 03 18 91 D3 44 4F 14 2D 44 09 A8 9E 3F DC 94 98 BD 82 0A 81 3F DE 67 FD 3F 7E DD 1D 

 100 [   2310] TX : 16 03 01 6A 00 06 E7 0F 
 260 [   2570] RX : 16 03 0C 24 3C 42 F4 FB FB 42 F3 62 07 42 F2 F1 D7 

 100 [   2671] TX : 1A 03 02 88 00 0C C7 B6 
  59 [   2730] RX : 1A 03 18 BE F1 46 46 0C 5D 3D 30 64 78 3F A7 A7 72 BD 9D BD 0C 3F A9 76 35 3F 7C 4F 98 

 100 [   2831] TX : 17 03 02 94 00 0C 07 6D 
 168 [   3000] RX : 17 03 18 53 8F 47 02 CD 4C 3F 33 08 D9 40 24 48 18 BD DB 7B 11 40 24 4E 3A 3F 7F C4 7E 

 100 [   3101] TX : 1A 03 02 94 00 0C 06 70 
 119 [   3220] RX : 1A 03 18 2C 19 46 72 84 B8 3D 5C BE FC 40 2D BD 18 BE 16 6D B0 40 2E FF 99 3F 7E 63 95 

 100 [   3321] TX : 17 03 02 A0 00 0C 46 A3 
  59 [   3380] RX : 17 03 18 A0 8E 46 A3 56 36 41 B1 E0 33 40 E5 76 DE BE 06 59 9F 40 E6 79 0F 3F 7F 46 55 

 100 [   3480] TX : 1A 03 02 A0 00 0C 47 BE 
  59 [   3540] RX : 1A 03 18 4C 93 45 EE 17 C5 3D 57 A2 C6 3F CC 8B 5F BD E4 97 EE 3F D1 F1 D6 3F 79 F1 F1 

 100 [   3641] TX : 17 03 02 AC 00 0C 86 A0 
 319 [   3960] RX : 17 03 18 29 94 45 28 EF EC 44 12 23 14 40 F5 68 20 BD CD 07 A6 40 F6 12 2B 3F 7F B6 9A 

 102 [   4062] TX : 17 03 01 62 00 02 66 DF 
  38 [   4100] RX : 17 03 04 08 AD 42 70 2F 37 

 101 [   4201] TX : 17 03 01 6A 00 06 E6 DE 
  49 [   4250] RX : 17 03 0C D1 94 42 F0 22 69 42 F1 70 70 42 F2 D7 25 

 101 [   4351] TX : 1A 03 01 62 00 02 67 C2 
 108 [   4459] RX : 1A 03 04 04 B6 42 70 80 A0 

 101 [   4561] TX : 1A 03 01 6A 00 06 E7 C3 
  49 [   4610] RX : 1A 03 0C 19 B1 42 F1 AA 14 42 F1 80 A1 42 F4 08 D8 

 100 [   4710] TX : 38 03 12 16 00 06 24 1D 
  40 [   4750] RX : 38 03 0C 00 00 00 00 00 00 00 00 00 00 00 00 6A 62 

 100 [   4851] TX : 4E 03 00 40 00 64 4B CA 
  39 [   4890] RX : 4E 83 09 B0 E1 

 100 [   4990] TX : 38 03 12 2A 00 06 E4 11 
  41 [   5031] RX : 38 03 0C 46 29 CF 48 45 40 82 D7 46 30 89 3F 58 3A 

 100 [   5131] TX : 4E 03 01 00 00 64 4B E2 
  39 [   5170] RX : 4E 83 09 B0 E1 

 101 [   5271] TX : 38 03 12 34 00 02 85 D4 
  69 [   5340] RX : 38 03 04 42 6F FF A9 F6 DB 

 100 [   5440] TX : 4E 03 01 A0 00 04 4B E8 
  40 [   5480] RX : 4E 83 02 F1 26 

 101 [   5581] TX : 38 03 12 52 00 02 65 CB 
  29 [   5610] RX : 38 03 04 00 00 00 00 53 30 

 100 [   5710] TX : 50 03 00 40 00 64 48 74 38 03 18 A0 00 04 47 E2 
 728 [   7780] RX : 38 03 08 03 00 00 00 00 00 41 F7 75 88 

 102 [   7882] TX : 4E 03 01 C0 00 04 4B F6 
  49 [   7931] RX : 4E 83 02 F1 26 

 104 [   8035] TX : 50 03 01 00 00 64 48 5C 4E 03 01 80 00 0A CB E6 
  42 [   9400] RX : 4E 83 02 F1 26 

 102 [   9502] TX : 50 03 01 A0 00 04 48 56 4E 02 04 C4 00 03 76 F9 
  44 [  10870] RX : 4E 02 01 00 B7 5C 

 101 [  10971] TX : 4E 02 04 93 00 06 07 2A 
  39 [  11010] RX : 4E 02 01 03 F7 5D 

 100 [  11110] TX : 4E 02 04 AD 00 01 27 24 
  39 [  11149] RX : 4E 02 01 00 B7 5C 

 101 [  11251] TX : 50 03 01 C0 00 04 48 48 0C 03 02 88 00 0C C5 40 
  86 [  12660] RX : 0C 03 18 AA D4 45 66 97 CF 44 36 E9 F0 40 82 3F 7A 3F 0D AE D5 40 84 96 2E 3F 7C 33 87 6A 0A C3 44 C5 2D BE 

 101 [  12761] TX : 50 03 01 80 00 0A C8 58 0C 03 02 94 00 0C 04 86 
  56 [  14140] RX : 0C 03 18 BD CE 44 37 82 EC 42 36 B3 5E 3E 93 41 D8 BC 94 D9 FD 3E DA C5 94 3F 2C DD CA 

 101 [  14241] TX : 50 02 04 C4 00 03 75 47 0C 03 02 A0 00 0C 45 48 
  88 [  15650] RX : 0C 03 18 01 6F 44 57 06 B9 43 64 9A C7 3E 6A 1E 26 3D 1B B5 73 3E 87 47 35 3F 5D 60 49 8D 0A 8D 0A C3 44 C5 2D BE 

  81 [  15751] TX : 50 02 04 93 00 06 04 94 0C 03 01 62 00 02 65 34 
  30 [  17110] RX : 0C 03 04 09 EB 42 70 64 1F 

 100 [  17210] TX : 50 02 04 AD 00 01 24 9A 0C 03 01 6A 00 06 E5 35 
 136 [  18670] RX : 0C 03 0C 7B A8 42 F5 43 07 42 F5 CF 85 42 F5 25 31 

 101 [  18771] TX : 0E 03 02 88 00 0C C4 A2 
 108 [  18879] RX : 0E 03 18 4E CD 44 C0 D5 DD 3D DA 82 04 3F A1 15 12 BE 7C DF 3E 3F AE 6F 92 3F 6C 07 33 

 100 [  18980] TX : 0F 03 02 88 00 0C C5 73 
  79 [  19060] RX : 0F 03 18 97 AF 46 90 78 5E 45 D2 A4 A4 40 97 6E B9 3F EC 69 1B 40 B8 83 14 3F 52 48 E2 8D 0A 8D 0A C3 44 C5 2D BE 

  81 [  19161] TX : 0E 03 01 62 00 02 64 D6 
  39 [  19200] RX : 0E 03 04 0C 35 42 70 27 29 

 103 [  19303] TX : 13 03 02 88 00 0C C7 2F 
 306 [  19609] RX : 13 03 18 C3 15 46 04 3C DC 3A FA DC D0 40 7D EA E3 BD D4 5B 60 40 7E 80 9F 3F 7F 2C D3 

 100 [  19710] TX : 0E 03 01 6A 00 06 E4 D7 
 110 [  19820] RX : 0E 03 0C B0 3B 42 F3 64 6D 42 F2 BD 60 42 F4 6F 3B 

 100 [  19921] TX : 0F 03 01 62 00 02 65 07 
 109 [  20030] RX : 0F 03 04 0D 2D 42 70 B6 12 8D 0A 8D 0A C3 44 C5 2D BE 

  81 [  20131] TX : 13 03 01 62 00 02 67 5B 
  79 [  20210] RX : 13 03 04 10 19 42 70 2C 71 

 100 [  20310] TX : 0F 03 01 6A 00 06 E5 06 
  69 [  20380] RX : 0F 03 0C 24 7A 42 F3 F8 AD 42 F2 DD 9A 42 F4 3A 4C 

 100 [  20480] TX : 14 03 02 88 00 0C C6 98 
 120 [  20600] RX : 14 03 18 9C 77 44 B2 68 DC 40 77 C7 1D 3E 95 37 56 BD D2 8B 32 3E C0 23 C8 3F 47 21 88 

 102 [  20702] TX : 13 03 01 6A 00 06 E7 5A 
  68 [  20770] RX : 13 03 0C 5C B2 42 F2 31 0C 42 F2 B2 8C 42 F3 9C F4 

 101 [  20871] TX : 14 03 01 62 00 02 66 EC 
  39 [  20910] RX : 14 03 04 0F 15 42 70 9D 66 

 100 [  21010] TX : 15 03 02 88 00 0C C7 49 
  60 [  21070] RX : 15 03 18 81 FD 45 93 D4 2A 42 45 0F 84 40 48 C7 E6 BF DB CB BE 40 69 0F 92 3F 5B BA ED 

 100 [  21171] TX : 14 03 01 6A 00 06 E6 ED 
  68 [  21239] RX : 14 03 0C FD 51 42 F6 8B 6B 42 F7 C4 AE 42 F7 25 FF 

 100 [  21340] TX : 16 03 02 88 00 0C C7 7A 
 210 [  21550] RX : 16 03 18 2D 77 46 0B DB C3 42 82 44 44 3E 26 9F 22 3D FB 24 23 3E 5A 1F 61 3F 43 BF BF 

 101 [  21682] TX : 15 03 02 94 00 0C 06 8F 
 148 [  21830] RX : 15 03 18 89 1E 46 18 48 6B 42 B8 8C C4 40 F2 78 B6 C0 86 10 5A 41 0F 02 B9 3F 59 B8 BF 

 100 [  21931] TX : 16 03 02 94 00 0C 06 BC 
  59 [  21990] RX : 16 03 18 76 3C 45 C1 43 60 43 2B 52 28 41 34 87 9C C0 C1 6B DB 41 4D B8 2B 3F 60 31 4A 

 100 [  22091] TX : 15 03 02 A0 00 0C 47 41 
  59 [  22150] RX : 15 03 18 5D E5 46 0B 7E C1 42 C2 AF 25 41 06 E6 AF C0 94 C5 77 41 1C EE C5 3F 5B CF 18 

 100 [  22251] TX : 16 03 02 A0 00 0C 47 72 
 329 [  22580] RX : 16 03 18 B6 53 45 56 CE 14 43 3C B3 1D 40 C1 C5 A2 C0 4B F0 0A 40 DB 75 BA 3F 61 65 19 

 100 [  22681] TX : 15 03 02 AC 00 0C 87 42 
 139 [  22820] RX : 15 03 18 BD 85 45 BE AB 15 42 B9 66 0D 40 D7 96 06 C0 62 4E 62 40 FA 4C 64 3F 5C 92 C6 27 FF 

 100 [  22921] TX : 16 03 02 AC 00 0C 87 71 
  59 [  22980] RX : 16 03 18 CE 96 46 2E 2E 4C 41 CB AA 4C 3E AB BB A1 3E 2C 9C DC 3E C3 A8 E2 3F 60 25 62 

 100 [  23080] TX : 15 03 01 62 00 02 67 3D 
  30 [  23110] RX : 15 03 04 0F A5 42 70 8C 41 

 100 [  23210] TX : 16 03 02 B8 00 0C C7 75 
 370 [  23580] RX : 16 03 18 63 D8 44 A0 E9 79 36 AE 70 23 41 6D BD CE C0 FA C3 F7 41 86 84 A8 3F 61 E9 3B 

 101 [  23682] TX : 15 03 01 6A 00 06 E7 3C 
 128 [  23810] RX : 15 03 0C 17 B9 42 F3 11 3F 42 F3 FB AB 42 F1 CD EB 

 100 [  23911] TX : 16 03 01 62 00 02 67 0E 
  39 [  23950] RX : 16 03 04 0F 16 42 70 4E A6 

 101 [  24051] TX : 17 03 02 88 00 0C C6 AB 
  59 [  24110] RX : 17 03 18 92 51 44 4F 14 2D 44 09 77 D6 3F DC E7 06 BD 89 D9 56 3F DD 68 15 3F 7E 4A 66 

 101 [  24212] TX : 16 03 01 6A 00 06 E7 0F 
 358 [  24570] RX : 16 03 0C 81 1F 42 F4 13 17 42 F4 2E 0D 42 F2 7B EC 8D 0A 8D 0A C3 44 C5 2D BE 

  81 [  24671] TX : 1A 03 02 88 00 0C C7 B6 
  59 [  24730] RX : 1A 03 18 BE FA 46 46 0C 5D 3D 30 D3 ED 3F A7 3F 77 BD 9C 27 2F 3F AA 80 6B 3F 7C AD BB 

 101 [  24832] TX : 17 03 02 94 00 0C 07 6D 
 257 [  25089] RX : 17 03 18 53 93 47 02 CD 4C 3F 33 58 AB 40 24 CD 66 BD E6 C8 30 40 24 52 BF 3F 7F 62 EE 

 101 [  25191] TX : 1A 03 02 94 00 0C 06 70 
  69 [  25260] RX : 1A 03 18 2C 2C 46 72 84 B8 3D 5C EC 6E 40 2D 90 35 BE 19 9A D2 40 2E 00 50 3F 7F F5 A1 

 100 [  25361] TX : 17 03 02 A0 00 0C 46 A3 
  88 [  25449] RX : 17 03 18 A0 A6 46 A3 56 36 41 B1 39 B7 40 E6 9F 93 BE 0A B1 E9 40 E6 7A 9F 3F 7F 1C 4F 

 100 [  25550] TX : 1A 03 02 A0 00 0C 47 BE 
  59 [  25610] RX : 1A 03 18 4C A9 45 EE 17 C5 3D 57 DD 75 3F CC 4E 68 BD E4 D6 11 3F D1 EF 6B 3F 79 7D 98 

 101 [  25711] TX : 17 03 02 AC 00 0C 86 A0 
 319 [  26030] RX : 17 03 18 2A 10 45 28 EF F6 44 12 ED E2 40 F4 AB E2 BD BF CF 27 40 F5 15 64 3F 7F 93 18 

 100 [  26130] TX : 17 03 01 62 
================================================================
HEX PORT_LOGGING started on Mon Dec 17 12:59:38 2012
 for FieldServer with IP 10.10.11.2
     [       ] RX : 4E 83 02 F1 26 

 102 [    102] TX : 50 03 01 00 00 64 48 5C 4E 03 01 80 00 0A CB E6 
  34 [   1460] RX : 4E 83 02 F1 26 

 102 [   1562] TX : 50 03 01 A0 00 04 48 56 4E 02 04 C4 00 03 76 F9 
  33 [   2920] RX : 4E 02 01 00 B7 5C 

 100 [   3020] TX : 4E 02 04 93 00 06 07 2A 
  39 [   3059] RX : 4E 02 01 03 F7 5D 

 102 [   3161] TX : 4E 02 04 AD 00 01 27 24 
  39 [   3200] RX : 4E 02 01 00 B7 5C 

 101 [   3301] TX : 50 03 01 C0 00 04 48 48 0C 03 02 88 00 0C C5 40 
  55 [   4680] RX : 0C 03 18 AC 23 45 66 98 82 44 36 B7 99 40 82 46 17 3F 0C 7E 29 40 84 91 B4 3F 7C 6E D2 

 100 [   4781] TX : 50 03 01 80 00 0A C8 58 0C 03 02 94 00 0C 04 86 
 365 [   6470] RX : 0C 03 18 BE 1E 44 37 82 EC 42 36 58 96 3E 92 54 A0 BC 0C 64 CF 3E DA 8B C8 3F 2B A5 46 

 101 [   6571] TX : 50 02 04 C4 00 03 75 47 0C 03 02 A0 00 0C 45 48 
  57 [   7950] RX : 0C 03 18 02 13 44 57 07 92 43 64 49 5E 3F 01 56 73 3D CF 26 43 3F 1C F5 A4 3F 53 C8 15 

 101 [   8052] TX : 50 02 04 93 00 06 04 94 0C 03 01 62 00 02 65 34 
  54 [   9430] RX : 0C 03 04 01 16 42 70 F7 8F 

 101 [   9531] TX : 50 02 04 AD 00 01 24 9A 0C 03 01 6A 00 06 E5 35 
  55 [  10909] RX : 0C 03 0C 4F E3 42 F5 13 51 42 F5 CE F1 42 F5 96 84 

 100 [  11010] TX : 0E 03 02 88 00 0C C4 A2 
  60 [  11070] RX : 0E 03 18 4F 8F 44 C0 D5 DD 3D DA 1D AA 3F A1 7B 4F BE 7F 7F 1B 3F AE 5E 9C 3F 6C A6 87 8D 0A 8D 0A C3 44 C5 2D BE 

  81 [  11171] TX : 0F 03 02 88 00 0C C5 73 
  59 [  11230] RX : 0F 03 18 97 D7 46 90 78 A3 45 D2 FA 94 40 7F CF 08 3F E4 97 53 40 98 B9 E0 3F 56 38 A1 

 102 [  11332] TX : 0E 03 01 62 00 02 64 D6 
 248 [  11580] RX : 0E 03 04 FE 88 42 6F C4 7D 

 100 [  11680] TX : 13 03 02 88 00 0C C7 2F 
  30 [  11710] RX : 13 03 18 C3 62 46 04 3C DC 3A FA 21 E2 40 82 5B 96 BD CE 63 E8 40 82 7E 60 3F 7F A3 3F 

 101 [  11842] TX : 0E 03 01 6A 00 06 E4 D7 
 118 [  11960] RX : 0E 03 0C C3 5C 42 F3 D6 4E 42 F2 4A 94 42 F4 25 DC 

 101 [  12061] TX : 0F 03 01 62 00 02 65 07 
  39 [  12100] RX : 0F 03 04 FE E7 42 6F E4 A0 

 101 [  12201] TX : 13 03 01 62 00 02 67 5B 
 219 [  12420] RX : 13 03 04 FF 84 42 6F C8 83 

 101 [  12521] TX : 0F 03 01 6A 00 06 E5 06 
 249 [  12770] RX : 0F 03 0C F5 10 42 F2 3D DE 42 F3 DE 9D 42 F4 D5 95 

 102 [  12872] TX : 14 03 02 88 00 0C C6 98 
  68 [  12940] RX : 14 03 18 9C A5 44 B2 68 DC 40 77 11 CB 3E 94 67 8D BD E3 04 47 3E C1 62 D6 3F 44 D2 E3 68 0A C3 44 C5 2D BE 

 100 [  13041] TX : 13 03 01 6A 00 06 E7 5A 
 419 [  13460] RX : 13 03 0C E5 97 42 F1 C6 00 42 F1 3C EB 42 F3 30 7F 

 100 [  13560] TX : 14 03 01 62 00 02 66 EC 
  40 [  13600] RX : 14 03 04 00 05 42 70 9F B7 

 100 [  13700] TX : 15 03 02 88 00 0C C7 49 
  60 [  13760] RX : 15 03 18 82 70 45 93 D4 2A 42 45 FD FD 40 47 09 D4 BF DC AC C9 40 76 8D 6D 3F 4F 33 E7 8D 0A 8D 0A C3 44 C5 2D BE 

  92 [  13862] TX : 14 03 01 6A 00 06 E6 ED 
  67 [  13929] RX : 14 03 0C 80 FC 42 F6 3F B8 42 F7 24 48 42 F7 8E 80 

 102 [  14032] TX : 16 03 02 88 00 0C C7 7A 
 358 [  14390] RX : 16 03 18 2D 7A 46 0B DC EC 42 82 F2 77 3E 27 86 DF 3D FA 07 34 3E 5B 4B EA 3F 44 18 59 

 101 [  14492] TX : 15 03 02 94 00 0C 06 8F 
 148 [  14640] RX : 15 03 18 89 BA 46 18 48 6B 42 B8 13 C0 40 F3 60 14 C0 86 45 3D 41 0F 2B 37 3F 59 C5 01 

 100 [  14740] TX : 16 03 02 94 00 0C 06 BC 
  60 [  14800] RX : 16 03 18 78 0A 45 C1 43 60 43 2B 35 B3 41 35 1A B1 C0 C2 56 5A 41 4E D3 18 3F 60 03 10 

 101 [  14902] TX : 15 03 02 A0 00 0C 47 41 
  59 [  14961] RX : 15 03 18 5E 92 46 0B 7E C1 42 C2 9D 5A 41 06 51 F3 C0 95 85 46 41 1C 2B DE 3F 5C 29 4C 

 100 [  15061] TX : 16 03 02 A0 00 0C 47 72 
 379 [  15440] RX : 16 03 18 B8 28 45 56 CE 14 43 3C E1 19 40 C1 EB 19 C0 4A 47 4B 40 DC 51 DC 3F 61 F2 D0 

 101 [  15542] TX : 15 03 02 AC 00 0C 87 42 
 108 [  15650] RX : 15 03 18 BE 69 45 BE AB 15 42 B9 38 7D 40 D6 19 48 C0 62 E5 DE 40 F7 38 D9 3F 5D 09 4B 

 100 [  15751] TX : 16 03 02 AC 00 0C 87 71 
  59 [  15810] RX : 16 03 18 CE 9C 46 2E 34 0A 41 CB 33 09 3E AB 08 FD 3E 2A A1 3D 3E C2 2E 76 3F 61 C7 27 

 101 [  15911] TX : 15 03 01 62 00 02 67 3D 
  29 [  15940] RX : 15 03 04 FE D0 42 6F EE AF 

 100 [  16041] TX : 16 03 02 B8 00 0C C7 75 
 559 [  16600] RX : 16 03 18 6D 5E 44 A0 E9 79 36 AE 5A BE 41 6E E0 09 C0 FA 38 52 41 87 A0 AE 3F 61 66 FF 

 101 [  16701] TX : 15 03 01 6A 00 06 E7 3C 
 279 [  16980] RX : 15 03 0C 82 96 42 F3 DC 5E 42 F2 84 DA 42 F2 10 B3 

 100 [  17080] TX : 16 03 01 62 00 02 67 0E 
================================================================
HEX PORT_LOGGING started on Mon Dec 17 15:44:45 2012
 for FieldServer with IP 10.10.11.2

     [       ] TX : 0F 03 02 88 00 0C C5 73 
  59 [     60] RX : 0F 03 18 AE 81 46 90 A0 2B 45 D2 19 56 40 7E BB 06 3F E1 4A D6 40 97 FA 9D 3F 56 46 D0 

 101 [    161] TX : 0F 03 01 62 00 02 65 07 
  39 [    200] RX : 0F 03 04 E5 43 42 6F A3 A7 

 100 [    300] TX : 0F 03 01 6A 00 06 E5 06 
  90 [    390] RX : 0F 03 0C D1 D5 42 F2 10 7E 42 F2 58 A3 42 F3 1F 27 

 100 [    500] TX : 13 03 02 88 00 0C C7 2F 
  60 [    560] RX : 13 03 18 F0 4C 46 04 3C DC 3A FA 26 C4 40 90 CC D8 BD F8 6A 14 40 90 88 AD 3F 7F 56 22 

 101 [    661] TX : 13 03 01 62 00 02 67 5B 
 109 [    770] RX : 13 03 04 E6 07 42 6F 3E 37 

 100 [    870] TX : 4E 03 00 4D 00 01 1A 22 
  40 [    910] RX : 4E 03 02 00 00 ED 8A 

 100 [   1010] TX : 13 03 01 6A 00 06 E7 5A 
 370 [   1380] RX : 13 03 0C 71 FC 42 F1 1D 17 42 F1 3B AD 42 F2 D3 9B 

 100 [   1480] TX : 14 03 02 88 00 0C C6 98 
  60 [   1540] RX : 14 03 18 C3 DA 44 B2 0D 34 40 78 E5 60 3E BF 77 DA BD D9 FC 55 3E F5 B5 52 3F 47 97 CD 

 100 [   1641] TX : 14 03 01 62 00 02 66 EC 
  29 [   1670] RX : 14 03 04 E4 D6 42 6F 19 76 

 100 [   1770] TX : 14 03 01 6A 00 06 E6 ED 
  60 [   1830] RX : 14 03 0C D0 D9 42 F5 62 31 42 F6 BF 99 42 F6 BF CC 

 101 [   1931] TX : 4E 03 00 49 00 01 5B E3 
  39 [   1970] RX : 4E 03 02 00 1E 6D 82 

 100 [   2070] TX : 15 03 02 88 00 0C C7 49 
  70 [   2140] RX : 15 03 18 C6 B2 45 93 D4 2A 42 45 C7 80 40 47 B5 30 BF D7 FC B3 40 6D E6 7A 3F 56 2D A5 

 100 [   2240] TX : 15 03 02 94 00 0C 06 8F 
 460 [   2700] RX : 15 03 18 DE 90 46 18 48 6B 42 B8 33 08 40 F2 27 E2 C0 85 3F 59 41 10 EB 42 3F 56 BC AE 

 101 [   2801] TX : 15 03 02 A0 00 0C 47 41 
  59 [   2860] RX : 15 03 18 B5 B4 46 0B 7E C1 42 C2 EF 6F 40 F1 71 3D C0 84 9D 97 41 11 AA E8 3F 54 61 EB 

 101 [   2962] TX : 15 03 02 AC 00 0C 87 42 
  58 [   3020] RX : 15 03 18 51 B2 45 BF AB 15 42 B9 15 15 40 D7 D6 B9 C0 5F 62 5E 40 FA E8 06 3F 5B C1 7C 

 100 [   3121] TX : 15 03 01 62 00 02 67 3D 
  39 [   3160] RX : 15 03 04 E5 A4 42 6F A8 51 

 100 [   3260] TX : 4E 03 00 46 00 01 6B E0 
  40 [   3300] RX : 4E 03 02 00 04 EC 49 

 100 [   3400] TX : 15 03 01 6A 00 06 E7 3C 
 290 [   3690] RX : 15 03 0C 72 B1 42 F2 62 9B 42 F2 B2 0B 42 F1 EF D2 

 100 [   3790] TX : 16 03 02 88 00 0C C7 7A 
  60 [   3850] RX : 16 03 18 2F 2F 46 0B 8B EA 42 83 9D 66 3E 19 E9 53 3D F9 C7 EA 3E 4F 43 86 3F 3D FB 09 

 100 [   3950] TX : 16 03 02 94 00 0C 06 BC 
 470 [   4420] RX : 16 03 18 71 3A 45 C2 43 60 43 2B D1 B3 41 35 96 E8 C0 C1 06 25 41 4F D5 17 3F 60 39 B1 

 101 [   4521] TX : 4E 03 00 40 00 03 0A 20 
  69 [   4590] RX : 4E 03 06 00 03 00 02 80 40 D4 B6 

 100 [   4690] TX : 16 03 02 A0 00 0C 47 72 
  61 [   4751] RX : 16 03 18 BF 98 45 57 CE 14 43 3C 3D 4B 40 BE 01 DF C0 45 3E 90 40 D8 36 D2 3F 61 70 6A 

 100 [   4851] TX : 16 03 02 AC 00 0C 87 71 
  59 [   4910] RX : 16 03 18 D1 FD 46 2E 15 F4 41 CF CF A9 3E 85 BA 6D 3E 40 30 7D 3E AB 1A 96 3F 48 FA B4 

 100 [   5010] TX : 16 03 02 B8 00 0C C7 75 
 410 [   5420] RX : 16 03 18 68 56 44 A5 E9 79 36 AE 76 73 41 65 C2 FB C0 F1 8B 82 41 82 FD 46 3F 60 77 48 

 101 [   5521] TX : 16 03 01 62 00 02 67 0E 
  38 [   5560] RX : 16 03 04 E2 21 42 6F 8B CC 

 100 [   5660] TX : 16 03 01 6A 00 06 E7 0F 
  50 [   5710] RX : 16 03 0C 25 A1 42 F3 7D 99 42 F3 15 13 42 F1 3C B7 

 100 [   5810] TX : 17 03 02 88 00 0C C6 AB 
  60 [   5870] RX : 17 03 18 C3 47 44 50 14 2D 44 09 C4 EB 3F DC D4 D6 BD 5B 42 B3 3F DE 48 44 3F 7E 21 2F 

 100 [   5971] TX : 17 03 02 94 00 0C 07 6D 
  39 [   6010] RX : 17 03 18 5A 26 47 02 CE 03 3F 33 F6 76 40 17 11 7C BD BB 60 B9 40 18 4D 7A 3F 7F EC CD 

 101 [   6131] TX : 17 03 02 A0 00 0C 46 A3 
  59 [   6190] RX : 17 03 18 C8 8E 46 A3 56 EF 41 B1 86 8B 40 E5 26 0D BD A1 FD 68 40 E5 7B B2 3F 7F 2F 13 

 100 [   6291] TX : 17 03 02 AC 00 0C 86 A0 
 529 [   6820] RX : 17 03 18 7C 89 45 29 01 F5 44 13 9B 26 40 F1 A9 04 BD 24 7E 80 40 F2 0F FC 3F 7F 7C 06 

 101 [   6921] TX : 17 03 01 62 00 02 66 DF 
  29 [   6950] RX : 17 03 04 E1 0E 42 6F AA 81 

 100 [   7051] TX : 17 03 01 6A 00 06 E6 DE 
  49 [   7100] RX : 17 03 0C 29 52 42 F0 11 47 42 F0 B5 2D 42 F1 CA AC 

 100 [   7200] TX : 1A 03 02 88 00 0C C7 B6 
  50 [   7250] RX : 1A 03 18 CD 9C 46 46 0D 9F 3D 30 25 14 3F A8 B2 53 BD 8F 93 30 3F AA 5A 56 3F 7C 7E E1 

 102 [   7352] TX : 1A 03 02 94 00 0C 06 70 
  58 [   7410] RX : 1A 03 18 4A 03 46 72 84 B8 3D 5C 6E 3E 3F FE D2 94 BD D8 97 55 3F FF D6 6F 3F 7E A1 4F 

 102 [   7512] TX : 1A 03 02 A0 00 0C 47 BE 
  58 [   7570] RX : 1A 03 18 70 0A 45 EE 1F 54 3D 57 05 A6 3F CD 8E D6 BD DC EF AB 3F D1 01 F3 3F 7A 9E 34 

 102 [   7672] TX : 1A 03 01 62 00 02 67 C2 
 458 [   8130] RX : 1A 03 04 DF 5A 42 6F 3A 79 

 101 [   8231] TX : 1A 03 01 6A 00 06 E7 C3 
  49 [   8280] RX : 1A 03 0C F9 2F 42 F0 7F 75 42 F0 5C 6E 42 F4 C5 96 

 101 [   8381] TX : 38 03 12 16 00 06 24 1D 
  89 [   8470] RX : 38 03 0C 00 00 00 00 00 00 00 00 00 00 00 00 6A 62 

 100 [   8570] TX : 38 03 12 2A 00 06 E4 11 
  70 [   8640] RX : 38 03 0C 46 86 C9 87 45 B9 34 E5 46 8F F7 E9 40 81 

 100 [   8740] TX : 38 03 12 34 00 02 85 D4 
  90 [   8830] RX : 38 03 04 42 6F D5 C9 E9 93 

 100 [   8930] TX : 38 03 12 52 00 02 65 CB 
 110 [   9040] RX : 38 03 04 00 00 00 00 53 30 

 100 [   9140] TX : 38 03 18 A0 00 04 47 E2 
  90 [   9230] RX : 38 03 08 03 00 00 00 00 00 42 1D F4 F7 

 100 [   9330] TX : 4E 03 01 00 00 50 4A 35 
 210 [   9540] RX : 4E 03 A0 00 0A 00 0A 00 0A 00 00 00 00 00 00 00 00 00 00 00 00 00 0B 00 0C 00 0F 00 00 00 00 00 00 00 00 00 00 00 50 00 00 00 00 00 00 01 E8 01 E8 01 E8 01 15 01 15 01 14 00 00 00 00 00 00 00 00 00 00 00 00 01 E8 01 E8 01 E8 01 16 01 18 01 17 01 E1 01 E5 01 E3 01 E8 01 E8 00 00 01 E7 00 00 00 00 00 00 00 01 00 00 00 03 00 03 00 04 00 01 00 0A 00 00 00 0A 00 D5 00 D0 00 A6 00 0A 00 3B 00 3C 00 3B 00 3C 00 00 00 00 00 00 00 00 00 00 00 00 00 0C 00 78 00 18 00 64 00 00 00 00 00 00 FF FF 9F 3A 

 101 [   9644] TX : 50 03 00 40 00 03 09 9E 
  46 [   9690] RX : 50 03 06 00 03 00 02 80 40 55 16 

 101 [   9791] TX : 50 03 00 46 00 01 68 5E 
  39 [   9830] RX : 50 03 02 00 04 44 4B 

 100 [   9930] TX : 50 03 00 49 00 01 58 5D 
  40 [   9970] RX : 50 03 02 00 1E C5 80 

 101 [  10071] TX : 50 03 00 4D 00 01 19 9C 
  39 [  10110] RX : 50 03 02 00 00 45 88 

 101 [  10211] TX : 50 03 00 4F 00 01 B8 5C 
  39 [  10250] RX : 50 03 02 00 00 45 88 

 100 [  10350] TX : 50 03 01 00 00 50 49 8B 
  80 [  10430] RX : 50 03 A0 00 0A 00 0A 00 0A 00 00 00 00 00 00 00 00 00 00 00 00 00 0A 00 0A 00 0C 00 00 00 00 00 00 00 00 00 00 00 50 00 00 00 00 00 00 01 E8 01 E8 01 E8 01 14 01 15 01 15 00 00 00 00 00 00 00 00 00 00 00 00 01 E9 01 E9 01 E9 01 17 01 15 01 18 01 E4 01 E1 01 E5 01 E8 01 E9 00 00 01 E7 00 00 00 00 00 00 00 00 00 00 00 02 00 02 00 03 00 01 00 09 00 00 00 09 00 DF 00 E2 00 B7 00 0A 00 3B 00 3C 00 3B 00 3C 00 00 00 00 00 00 00 00 00 00 00 00 00 0C 00 78 00 18 00 64 00 00 00 00 00 00 FF FF B1 5E 

 101 [  10663] TX : 0C 03 02 88 00 0C C5 40 
  77 [  10740] RX : 0C 03 18 69 34 45 67 FB 49 44 36 F1 6E 40 7D 5B 83 3E D0 6A C2 40 80 1E 51 3F 7D A4 E9 

 100 [  10840] TX : 0C 03 02 94 00 0C 04 86 
  60 [  10900] RX : 0C 03 18 F0 D7 44 37 84 19 42 36 1E 6A 3E 8F E4 8C BC 94 6E 74 3E D7 11 E7 3F 2A 7C D6 

 100 [  11001] TX : 0C 03 02 A0 00 0C 45 48 
 509 [  11510] RX : 0C 03 18 6C 9B 44 57 91 E9 43 64 36 0E 3F 26 33 94 3E 1F 5D FB 3F 39 8B 77 3F 65 5B 9F 

 100 [  11610] TX : 0C 03 01 62 00 02 65 34 
  30 [  11640] RX : 0C 03 04 DD 7A 42 6F 4D CA 

 101 [  11741] TX : 0C 03 01 6A 00 06 E5 35 
  49 [  11790] RX : 0C 03 0C 87 87 42 F4 CC D8 42 F4 12 7A 42 F5 B1 15 

 100 [  11890] TX : 0E 03 02 88 00 0C C4 A2 
  60 [  11950] RX : 0E 03 18 C3 6E 44 C0 D5 DD 3D DA 15 16 3F A1 17 75 BE 86 10 C6 3F B1 E4 45 3F 68 EF AA 

 101 [  12051] TX : 0E 03 01 62 00 02 64 D6 
  39 [  12090] RX : 0E 03 04 DE 1D 42 6F DF 91 

 101 [  12191] TX : 0E 03 01 6A 00 06 E4 D7 
  69 [  12260] RX : 0E 03 0C 7A C6 42 F2 E4 47 42 F1 52 E2 42 F3 53 C1 

 101 [  12361] TX : 4E 03 00 4F 00 01 BB E2 
  39 [  12400] RX : 4E 03 02 00 00 ED 8A 

 101 [  12501] TX : 0F 03 02 88 00 0C C5 73 
 288 [  12789] RX : 0F 03 18 AE 89 46 90 A0 38 45 D2 F1 13 40 7E 26 2C 3F E2 AF F5 40 97 21 5A 3F 57 4C 5A 

 100 [  12890] TX : 0F 03 01 62 00 02 65 07 
  29 [  12920] RX : 0F 03 04 DC D5 42 6F 4F 17 

 100 [  13020] TX : 0F 03 01 6A 00 06 E5 06 
  60 [  13080] RX : 0F 03 0C 65 69 42 F2 42 E2 42 F2 87 95 42 F3 C6 72 

 100 [  13180] TX : 13 03 02 88 00 0C C7 2F 
 200 [  13380] RX : 13 03 18 F0 5D 46 04 3C DC 3A FA 03 42 40 90 08 C1 BD F6 46 54 40 90 88 FE 3F 7F FD 71 

 101 [  13482] TX : 13 03 01 62 00 02 67 5B 
  38 [  13520] RX : 13 03 04 DD 40 42 6F 83 06 

 100 [  13620] TX : 4E 03 00 4D 00 01 1A 22 
  40 [  13660] RX : 4E 03 02 00 00 ED 8A 

 100 [  13760] TX : 13 03 01 6A 00 06 E7 5A 
  70 [  13830] RX : 13 03 0C 8F 6A 42 F1 46 BD 42 F1 72 B4 42 F2 13 D9 

 101 [  13931] TX : 14 03 02 88 00 0C C6 98 
  59 [  13990] RX : 14 03 18 C3 E4 44 B2 0D 34 40 78 48 48 3E C5 A1 0A BD D2 18 EF 3E FB 22 5D 3F 49 CE 7A 

 100 [  14091] TX : 14 03 01 62 00 02 66 EC 
 279 [  14370] RX : 14 03 04 DD 94 42 6F B5 FE 

 102 [  14472] TX : 14 03 01 6A 00 06 E6 ED 
  69 [  14541] RX : 14 03 0C 02 9C 42 F6 88 9E 42 F6 C6 EE 42 F6 AC 33 

 100 [  14641] TX : 4E 03 00 49 00 01 5B E3 
  39 [  14680] RX : 4E 03 02 00 1E 6D 82 

 118 [  14798] TX : 15 03 02 88 00 0C C7 49 
  52 [  14850] RX : 15 03 18 C6 C7 45 93 D4 2A 42 45 7A 20 40 48 7B A5 BF D7 45 FF 40 6E 64 49 3F 57 A9 8F 

 101 [  14951] TX : 15 03 02 94 00 0C 06 8F 
  59 [  15010] RX : 15 03 18 DE A9 46 18 48 6B 42 B8 41 4D 40 F2 64 92 C0 84 FD AF 41 0E DB 81 3F 58 0F 21 

 100 [  15111] TX : 15 03 02 A0 00 0C 47 41 
  59 [  15170] RX : 15 03 18 B5 CE 46 0B 7E C1 42 C2 05 59 40 F3 13 C5 C0 84 7E 46 41 10 47 F9 3F 57 45 B5 

 101 [  15271] TX : 15 03 02 AC 00 0C 87 42 
 429 [  15700] RX : 15 03 18 51 E1 45 BF AB 15 42 B9 05 BC 40 D6 C2 21 C0 5E B1 23 40 F8 4F C9 3F 5C 2B 50 

 103 [  15803] TX : 15 03 01 62 00 02 67 3D 
  37 [  15840] RX : 15 03 04 DC A0 42 6F E5 0C 

 100 [  15940] TX : 4E 03 00 46 00 01 6B E0 
  40 [  15980] RX : 4E 03 02 00 04 EC 49 

 101 [  16081] TX : 15 03 01 6A 00 06 E7 3C 
  59 [  16140] RX : 15 03 0C 49 FB 42 F2 B0 2D 42 F2 9B 42 42 F1 BC 94 

 100 [  16240] TX : 16 03 02 88 00 0C C7 7A 
 190 [  16430] RX : 16 03 18 2F 2F 46 0B 8C 1E 42 83 A8 EC 3E 20 B6 F9 3E 01 39 31 3E 58 37 06 3F 3E E2 98 

 100 [  16531] TX : 16 03 02 94 00 0C 06 BC 
  59 [  16590] RX : 16 03 18 71 88 45 C2 43 60 43 2B A4 87 41 35 CA 03 C0 C0 E2 54 41 4E C4 1E 3F 60 64 FE 

 100 [  16690] TX : 4E 03 00 40 00 03 0A 20 
  40 [  16730] RX : 4E 03 06 00 03 00 02 80 40 D4 B6 

 100 [  16830] TX : 16 03 02 A0 00 0C 47 72 
  60 [  16890] RX : 16 03 18 BF E9 45 57 CE 14 43 3C 70 60 40 BE CF 30 C0 44 7B 6F 40 D8 33 E6 3F 61 4A 79 

 100 [  16990] TX : 16 03 02 AC 00 0C 87 71 
 450 [  17440] RX : 16 03 18 D1 FE 46 2E 17 41 41 CF F5 E7 3E 86 65 AA 3E 43 F6 BC 3E AC C0 91 3F 47 23 67 

 101 [  17541] TX : 16 03 02 B8 00 0C C7 75 
  59 [  17600] RX : 16 03 18 69 E7 44 A5 E9 79 36 AE 76 73 41 65 C2 FB C0 F1 8B 82 41 82 FD 46 3F 60 D8 32 

 100 [  17700] TX : 16 03 01 62 00 02 67 0E 
  29 [  17730] RX : 16 03 04 DB 29 42 6F 06 92 

 101 [  17831] TX : 16 03 01 6A 00 06 E7 0F 
  49 [  17880] RX : 16 03 0C BB 1A 42 F3 1A 8E 42 F1 76 1B 42 F1 A3 8E 

 101 [  17981] TX : 17 03 02 88 00 0C C6 AB 
  59 [  18040] RX : 17 03 18 C3 A6 44 50 14 2D 44 09 90 84 3F DC A2 22 BD 70 14 81 3F DE 40 C0 3F 7E 5A 05 

 101 [  18142] TX : 17 03 02 94 00 0C 07 6D 
  58 [  18200] RX : 17 03 18 5A 28 47 02 CE 03 3F 33 03 6E 40 18 9E 25 BD 9C 64 98 40 18 5C C7 3F 7F 88 1C 

 102 [  18303] TX : 17 03 02 A0 00 0C 46 A3 
 511 [  18814] RX : 17 03 18 C8 9D 46 A3 56 EF 41 B1 1C 7B 40 E6 AD 9B BD BA 93 27 40 E6 7C 3E 3F 7F AE 96 

 101 [  18915] TX : 17 03 02 AC 00 0C 86 A0 
  55 [  18970] RX : 17 03 18 7C EC 45 29 01 FB 44 13 41 AD 40 F1 41 24 BD 3D 2B AD 40 F2 08 A3 3F 7F 31 E0 

 100 [  19070] TX : 17 03 01 62 00 02 66 DF 
  30 [  19100] RX : 17 03 04 DD C6 42 6F 27 2F 

 101 [  19201] TX : 17 03 01 6A 00 06 E6 DE 
  89 [  19290] RX : 17 03 0C 29 92 42 F0 FB 62 42 EF E2 9F 42 F1 E9 CB 

 100 [  19390] TX : 1A 03 02 88 00 0C C7 B6 
  60 [  19450] RX : 1A 03 18 CD A0 46 46 0D 9F 3D 30 3F B4 3F A7 1F C0 BD 8A A9 93 3F A9 5B B5 3F 7C 44 D2 

 100 [  19551] TX : 1A 03 02 94 00 0C 06 70 
 529 [  20080] RX : 1A 03 18 4A 0A 46 72 84 B8 3D 5C 90 F6 3F FE 54 FB BD E2 BF D1 3F FF D0 D9 3F 7E CB 19 

 101 [  20181] TX : 1A 03 02 A0 00 0C 47 BE 
  29 [  20210] RX : 1A 03 18 70 14 45 EE 1F 54 3D 57 C4 3F 3F CB 53 B8 BD DA 9B BF 3F D0 0E E9 3F 7A DD 99 

 100 [  20341] TX : 1A 03 01 62 00 02 67 C2 
  29 [  20370] RX : 1A 03 04 DD 04 42 6F 5A 13 

 100 [  20470] TX : 1A 03 01 6A 00 06 E7 C3 
  80 [  20550] RX : 1A 03 0C 58 99 42 F0 83 F5 42 F1 9B 3A 42 F3 7D A1 

 100 [  20650] TX : 38 03 12 16 00 06 24 1D 
  40 [  20690] RX : 38 03 0C 00 00 00 00 00 00 00 00 00 00 00 00 6A 62 

 101 [  20791] TX : 38 03 12 2A 00 06 E4 11 
  49 [  20840] RX : 38 03 0C 46 82 DB 8C 45 78 FA FF 46 87 0D A3 5D 6B 

 101 [  20941] TX : 38 03 12 34 00 02 85 D4 
  89 [  21030] RX : 38 03 04 42 6F D7 50 28 99 

 100 [  21130] TX : 38 03 12 52 00 02 65 CB 
 100 [  21230] RX : 38 03 04 00 00 00 00 53 30 

 101 [  21331] TX : 38 03 18 A0 00 04 47 E2 
 129 [  21460] RX : 38 03 08 03 00 00 00 00 00 42 1D F4 F7 

 100 [  21560] TX : 4E 03 01 00 00 50 4A 35 
 220 [  21780] RX : 4E 03 A0 00 0A 00 0A 00 0A 00 00 00 00 00 00 00 00 00 00 00 00 00 0B 00 0C 00 0F 00 00 00 00 00 00 00 00 00 00 00 50 00 00 00 00 00 00 01 E7 01 E7 01 E7 01 14 01 15 01 15 00 00 00 00 00 00 00 00 00 00 00 00 01 E8 01 E8 01 E8 01 16 01 18 01 16 01 E1 01 E6 01 E3 01 E7 01 E8 00 00 01 E7 00 00 00 00 00 00 00 01 00 00 00 03 00 03 00 04 00 01 00 0A 00 00 00 0A 00 CB 00 D2 00 9E 00 0A 00 3B 00 3C 00 3B 00 3C 00 00 00 00 00 00 00 00 00 00 00 00 00 0C 00 78 00 18 00 64 00 00 00 00 00 00 FF FF 1A AC 

 101 [  21883] TX : 50 03 00 40 00 03 09 9E 
  37 [  21920] RX : 50 03 06 00 03 00 02 80 40 55 16 

 100 [  22020] TX : 50 03 00 46 00 01 68 5E 
  40 [  22060] RX : 50 03 02 00 04 44 4B 

 101 [  22161] TX : 50 03 00 49 00 01 58 5D 
  39 [  22200] RX : 50 03 02 00 1E C5 80 

 100 [  22300] TX : 50 03 00 4D 00 01 19 9C 
  40 [  22340] RX : 50 03 02 00 00 45 88 

 100 [  22440] TX : 50 03 00 4F 00 01 B8 5C 
  40 [  22480] RX : 50 03 02 00 00 45 88 

 100 [  22580] TX : 50 03 01 00 00 50 49 8B 
 210 [  22790] RX : 50 03 A0 00 0A 00 0A 00 0A 00 00 00 00 00 00 00 00 00 00 00 00 00 0A 00 0A 00 0C 00 00 00 00 00 00 00 00 00 00 00 50 00 00 00 00 00 00 01 E8 01 E8 01 E8 01 15 01 15 01 15 00 00 00 00 00 00 00 00 00 00 00 00 01 E8 01 E8 01 E8 01 16 01 15 01 17 01 E1 01 E1 01 E4 01 E8 01 E8 00 00 01 E7 00 00 00 00 00 00 00 00 00 00 00 02 00 02 00 03 00 01 00 09 00 00 00 09 00 DF 00 E6 00 C2 00 0A 00 3B 00 3C 00 3B 00 3C 00 00 00 00 00 00 00 00 00 00 00 00 00 0C 00 78 00 18 00 64 00 00 00 00 00 00 FF FF 74 22 

 100 [  22893] TX : 0C 03 02 88 00 0C C5 40 
  57 [  22950] RX : 0C 03 18 69 79 45 67 FB 70 44 36 72 68 40 A1 4D B7 3F 0C 9B 0D 40 A7 97 D7 3F 76 E4 B2 

 101 [  23051] TX : 0C 03 02 94 00 0C 04 86 
 429 [  23480] RX : 0C 03 18 F0 E7 44 37 84 19 42 36 7F 00 3E 9A CC CC BB F8 E1 A2 3E E6 4D EE 3F 2B E2 03 

 100 [  23611] TX : 0C 03 02 A0 00 0C 45 48 
  59 [  23670] RX : 0C 03 18 6C C2 44 57 92 17 43 64 50 21 3F 36 A2 DF 3E 4C 99 0A 3F 48 AA 4A 3F 68 C2 55 

 101 [  23771] TX : 0C 03 01 62 00 02 65 34 
  39 [  23810] RX : 0C 03 04 DD 15 42 6F 7D D7 

 101 [  23911] TX : 0C 03 01 6A 00 06 E5 35 
  49 [  23960] RX : 0C 03 0C 23 93 42 F4 7C AB 42 F4 BE 27 42 F4 BA 1A 

 101 [  24061] TX : 0E 03 02 88 00 0C C4 A2 
  59 [  24120] RX : 0E 03 18 C3 91 44 C0 D5 DD 3D DA 23 A0 3F A1 63 6F BE 83 5B 17 3F B1 97 AB 3F 68 40 5D 

 101 [  24221] TX : 0E 03 01 62 00 02 64 D6 
 399 [  24620] RX : 0E 03 04 DF F9 42 6F 9E 5A 

 101 [  24721] TX : 0E 03 01 6A 00 06 E4 D7 
  69 [  24790] RX : 0E 03 0C 73 89 42 F2 F6 A6 42 F1 90 A1 42 F3 97 BF 

 100 [  24890] TX : 4E 03 00 4F 00 01 BB E2 
  40 [  24930] RX : 4E 03 02 00 00 ED 8A 

 100 [  25030] TX : 0F 03 02 88 00 0C C5 73 
  60 [  25090] RX : 0F 03 18 AE 90 46 90 A0 44 45 D2 58 FE 40 87 01 89 3F E6 6A 86 40 A2 55 AF 3F 55 71 78 

 102 [  25192] TX : 0F 03 01 62 00 02 65 07 
  38 [  25230] RX : 0F 03 04 E1 3B 42 6F 22 8E 

 100 [  25330] TX : 0F 03 01 6A 00 06 E5 06 
  80 [  25410] RX : 0F 03 0C 7D 18 42 F2 53 2D 42 F2 DF AB 42 F3 C5 0F 

 100 [  25510] TX : 13 03 02 88 00 0C C7 2F 
  60 [  25570] RX : 13 03 18 F0 6C 46 04 3C DC 3A FA D0 67 40 8F F6 02 BD F8 14 7A 40 90 87 0C 3F 7F 48 E0 

 101 [  25672] TX : 13 03 01 62 00 02 67 5B 
  98 [  25770] RX : 13 03 04 E1 7F 42 6F BF 5A 

 100 [  25870] TX : 4E 03 00 4D 00 01 1A 22 
  40 [  25910] RX : 4E 03 02 00 00 ED 8A 

 100 [  26010] TX : 13 03 01 6A 00 06 E7 5A 
 370 [  26380] RX : 13 03 0C 99 8A 42 F1 29 58 42 F1 7A EF 42 F2 0C F8 

 101 [  26482] TX : 14 03 02 88 00 0C C6 98 
  58 [  26540] RX : 14 03 18 C3 F0 44 B2 0D 34 40 78 90 FB 3E C3 EB 34 BD D5 C6 7C 3E FA A4 0A 3F 47 6E D6 

 100 [  26640] TX : 14 03 01 62 00 02 66 EC 
  30 [  26670] RX : 14 03 04 E1 D8 42 6F 78 79 

 101 [  26771] TX : 14 03 01 6A 00 06 E6 ED 
  83 [  26854] RX : 14 03 0C E6 59 42 F5 AC 06 42 F6 BD 0D 42 F6 D5 0D 

 100 [  26954] TX : 4E 03 00 49 00 01 5B E3 
  36 [  26990] RX : 4E 03 02 00 1E 6D 82 

 100 [  27090] TX : 15 03 02 88 00 0C C7 49 
  60 [  27150] RX : 15 03 18 C6 DC 45 93 D4 2A 42 45 30 08 40 46 33 EA BF D7 7D 7F 40 6B 72 D6 3F 57 20 2E 

 101 [  27251] TX : 15 03 02 94 00 0C 06 8F 
 449 [  27700] RX : 15 03 18 DE CC 46 18 48 6B 42 B8 31 E7 40 F2 19 86 C0 84 47 51 41 0C FE E1 3F 5C 5B 76 

 101 [  27801] TX : 15 03 02 A0 00 0C 47 41 
  59 [  27861] RX : 15 03 18 B5 E8 46 0B 7E C1 42 C2 E1 37 40 F1 FC BB C0 83 40 12 41 0F 21 26 3F 58 95 19 

 100 [  27961] TX : 15 03 02 AC 00 0C 87 42 
  59 [  28020] RX : 15 03 18 52 0E 45 BF AB 15 42 B9 BB 33 40 D7 47 C5 C0 60 6D BB 40 F8 4E 5C 3F 5E E4 57 

 102 [  28122] TX : 15 03 01 62 00 02 67 3D 
  28 [  28150] RX : 15 03 04 E3 EA 42 6F C8 CE 

 101 [  28251] TX : 4E 03 00 46 00 01 6B E0 
  39 [  28290] RX : 4E 03 02 00 04 EC 49 

 100 [  28390] TX : 15 03 01 6A 00 06 E7 3C 
 600 [  28990] RX : 15 03 0C 49 FB 42 F2 5D 45 42 F2 7C 12 42 F1 AC 26 

 100 [  29091] TX : 16 03 02 88 00 0C C7 7A 
 359 [  29450] RX : 16 03 18 2F 30 46 0B 8C 54 42 83 1F 94 3E 1B 2C 46 3D FD 39 54 3E 52 E6 BD 3F 3C CD 76 

 100 [  29551] TX : 16 03 02 94 00 0C 06 BC 
  39 [  29590] RX : 16 03 18 71 EE 45 C2 43 60 43 2B 56 E4 41 36 7E DA C0 C0 6E 5E 41 4F 08 80 3F 61 B7 B4 

 100 [  29710] TX : 4E 03 00 40 00 03 0A 20 
  50 [  29760] RX : 4E 03 06 00 03 00 02 80 40 D4 B6 

 112 [  29872] TX : 16 03 02 A0 00 0C 47 72 
  88 [  29960] RX : 16 03 18 C0 3A 45 57 CE 14 43 3C 51 50 40 BE 85 38 C0 45 7D F3 40 D8 0C 8D 3F 61 EF 4C 

 100 [  30060] TX : 16 03 02 AC 00 0C 87 71 
 390 [  30450] RX : 16 03 18 D2 00 46 2E 18 98 41 CF 9E 6C 3E 86 AF 5D 3E 42 57 53 3E AC F7 62 3F 47 F3 BE 

 100 [  30551] TX : 16 03 02 B8 00 0C C7 75 
  59 [  30610] RX : 16 03 18 6B 70 44 A5 E9 79 36 AE C0 92 41 64 D9 FC C0 F0 4A B4 41 82 BA 80 3F 60 2B 2D 

 101 [  30711] TX : 16 03 01 62 00 02 67 0E 
  29 [  30740] RX : 16 03 04 E4 90 42 6F DB 63 

 101 [  30841] TX : 16 03 01 6A 00 06 E7 0F 
  49 [  30890] RX : 16 03 0C 81 0F 42 F3 D1 C8 42 F2 23 13 42 F1 00 F3 

 101 [  30991] TX : 17 03 02 88 00 0C C6 AB 
  59 [  31050] RX : 17 03 18 C4 03 44 50 14 2D 44 09 D5 C9 3F DB 05 4E BD 5A 54 0E 3F DD 45 D9 3F 7E 0A 27 

 101 [  31152] TX : 17 03 02 94 00 0C 07 6D 
  58 [  31210] RX : 17 03 18 5A 2A 47 02 CE 03 3F 33 E3 7B 40 17 8A A6 BD 9F 4A BD 40 18 52 6D 3F 7F CE 35 

 101 [  31311] TX : 17 03 02 A0 00 0C 46 A3 
 490 [  31801] RX : 17 03 18 C8 AD 46 A3 56 EF 41 B1 17 9A 40 E5 CC 6A BD AB 90 F7 40 E5 78 AA 3F 7F B5 D7 

 100 [  31901] TX : 17 03 02 AC 00 0C 86 A0 
  59 [  31960] RX : 17 03 18 7D 53 45 29 02 01 44 13 8E EB 40 F1 F3 1C BD 45 76 75 40 F2 0B 89 3F 7F FC 60 

 100 [  32061] TX : 17 03 01 62 00 02 66 DF 
  39 [  32100] RX : 17 03 04 E5 65 42 6F DA 6D 

 100 [  32200] TX : 17 03 01 6A 00 06 E6 DE 
  51 [  32251] RX : 17 03 0C 87 FF 42 EF FB 62 42 EF E2 9F 42 F1 CA 40 

 101 [  32352] TX : 1A 03 02 88 00 0C C7 B6 
  58 [  32410] RX : 1A 03 18 CD A5 46 46 0D 9F 3D 30 12 C2 3F A7 D0 ED BD 93 80 D7 3F A9 54 79 3F 7C B5 22 

 101 [  32511] TX : 1A 03 02 94 00 0C 06 70 
  59 [  32570] RX : 1A 03 18 4A 10 46 72 84 B8 3D 5C 6A 8C 3F FE 54 54 BD E3 97 B1 3F FF D2 60 3F 7E 4C 69 

 100 [  32671] TX : 1A 03 02 A0 00 0C 47 BE 
 389 [  33060] RX : 1A 03 18 70 1F 45 EE 1F 54 3D 57 AF 23 3F CC 33 A3 BD D1 A0 11 3F D1 F7 3C 3F 79 45 17 

 100 [  33161] TX : 1A 03 01 62 00 02 67 C2 
  29 [  33190] RX : 1A 03 04 E6 7E 42 6F 76 EE 

 100 [  33290] TX : 1A 03 01 6A 00 06 E7 C3 
  50 [  33340] RX : 1A 03 0C 21 20 42 F0 01 AE 42 F1 D4 08 42 F3 8C FB 

 102 [  33442] TX : 38 03 12 16 00 06 24 1D 
  38 [  33480] RX : 38 03 0C 00 00 00 00 00 00 00 00 00 00 00 00 6A 62 

 101 [  33582] TX : 38 03 12 2A 00 06 E4 11 
  48 [  33630] RX : 38 03 0C 46 81 EC DF 45 76 3E 32 46 86 04 D0 CF 18 

 100 [  33730] TX : 38 03 12 34 00 02 85 D4 
 100 [  33830] RX : 38 03 04 42 6F E1 37 7E D3 

 100 [  33930] TX : 38 03 12 52 00 02 65 CB 
 100 [  34030] RX : 38 03 04 00 00 00 00 53 30 

 100 [  34130] TX : 38 03 18 A0 00 04 47 E2 
 100 [  34230] RX : 38 03 08 03 00 00 00 00 00 42 1D F4 F7 

 101 [  34331] TX : 4E 03 01 00 00 50 4A 35 
  99 [  34430] RX : 4E 03 A0 00 0A 00 0A 00 0A 00 00 00 00 00 00 00 00 00 00 00 00 00 0B 00 0C 00 0F 00 00 00 00 00 00 00 00 00 00 00 50 00 00 00 00 00 00 01 E8 01 E8 01 E8 01 15 01 15 01 15 00 00 00 00 00 00 00 00 00 00 00 00 01 E8 01 E8 01 E8 01 15 01 17 01 17 01 E4 01 E7 01 E2 01 E8 01 E8 00 00 01 E7 00 00 00 00 00 00 00 01 00 00 00 03 00 03 00 04 00 01 00 0B 00 00 00 0B 00 CE 00 D8 00 9E 00 0A 00 3B 00 3C 00 3B 00 3C 00 00 00 00 00 00 00 00 00 00 00 00 00 0C 00 78 00 18 00 64 00 00 00 00 00 00 FF FF 3A 1F 

 101 [  34653] TX : 50 03 00 40 00 03 09 9E 
  47 [  34700] RX : 50 03 06 00 03 00 02 80 40 55 16 

 101 [  34801] TX : 50 03 00 46 00 01 68 5E 
  39 [  34840] RX : 50 03 02 00 04 44 4B 

 100 [  34940] TX : 50 03 00 49 00 01 58 5D 
  40 [  34980] RX : 50 03 02 00 1E C5 80 

 100 [  35080] TX : 50 03 00 4D 00 01 19 9C 
  39 [  35120] RX : 50 03 02 00 00 45 88 

 101 [  35221] TX : 50 03 00 4F 00 01 B8 5C 
  39 [  35260] RX : 50 03 02 00 00 45 88 

 101 [  35361] TX : 50 03 01 00 00 50 49 8B 
 209 [  35570] RX : 50 03 A0 00 0A 00 0A 00 0A 00 00 00 00 00 00 00 00 00 00 00 00 00 0A 00 0A 00 0C 00 00 00 00 00 00 00 00 00 00 00 50 00 00 00 00 00 00 01 E8 01 E8 01 E8 01 15 01 15 01 15 00 00 00 00 00 00 00 00 00 00 00 00 01 E9 01 E9 01 E9 01 16 01 16 01 18 01 E2 01 E1 01 E5 01 E8 01 E9 00 00 01 E7 00 00 00 00 00 00 00 00 00 00 00 02 00 02 00 03 00 01 00 09 00 00 00 09 00 E1 00 EB 00 C9 00 0A 00 3B 00 3C 00 3B 00 3B 00 00 00 00 00 00 00 00 00 00 00 00 00 0C 00 78 00 18 00 64 00 00 00 00 00 00 FF FF A2 E7 

 102 [  35675] TX : 0C 03 02 88 00 0C C5 40 
  55 [  35730] RX : 0C 03 18 69 C1 45 67 FB 9E 44 36 00 9D 40 AB 3E 58 3F 19 C3 2C 40 AE 7E 00 3F 7A 55 54 

 100 [  35831] TX : 0C 03 02 94 00 0C 04 86 
  59 [  35890] RX : 0C 03 18 F0 F6 44 37 84 19 42 36 FB 07 3E 92 A1 EE BB 96 35 0A 3E DE 55 45 3F 29 82 D2 

 100 [  35990] TX : 0C 03 02 A0 00 0C 45 48 
 520 [  36510] RX : 0C 03 18 6C FD 44 57 92 62 43 64 43 CC 3F 46 BF 9C 3E 3D 3E 68 3F 53 45 6E 3F 70 DB C3 

 102 [  36612] TX : 0C 03 01 62 00 02 65 34 
  38 [  36650] RX : 0C 03 04 EA FE 42 6F 03 97 

 101 [  36751] TX : 0C 03 01 6A 00 06 E5 35 
  49 [  36800] RX : 0C 03 0C 1C 85 42 F4 AF 6B 42 F4 96 EC 42 F4 51 1D 

 113 [  36913] TX : 0E 03 02 88 00 0C C4 A2 
  57 [  36970] RX : 0E 03 18 C3 B6 44 C0 D5 DD 3D DA 8C EF 3F A0 46 11 BE 83 9A C2 3F B0 BA 89 3F 68 42 06 

 107 [  37078] TX : 0E 03 01 62 00 02 64 D6 
  32 [  37110] RX : 0E 03 04 ED 8B 42 6F 30 F9 

 100 [  37210] TX : 0E 03 01 6A 00 06 E4 D7 
 450 [  37660] RX : 0E 03 0C AD 12 42 F2 6E B1 42 F2 A9 D8 42 F3 92 7E 

 101 [  37761] TX : 4E 03 00 4F 00 01 BB E2 
  40 [  37801] RX : 4E 03 02 00 00 ED 8A 

 118 [  37919] TX : 0F 03 02 88 00 0C C5 73 
  41 [  37960] RX : 0F 03 18 AE 97 46 90 A0 52 45 D2 91 F8 40 87 40 04 3F E5 D6 FD 40 A2 21 29 3F 55 0B 7C 

 100 [  38080] TX : 0F 03 01 62 00 02 65 07 
  30 [  38110] RX : 0F 03 04 ED 7F 42 6F 61 CB 

 100 [  38210] TX : 0F 03 01 6A 00 06 E5 06 
  70 [  38280] RX : 0F 03 0C 93 79 42 F2 85 4D 42 F2 23 21 42 F4 E9 D3 

 101 [  38381] TX : 13 03 02 88 00 0C C7 2F 
  59 [  38440] RX : 13 03 18 F0 7C 46 04 3C DC 3A FA 00 29 40 90 94 CF BE 00 43 B8 40 90 88 1E 3F 7F 15 FF 

 100 [  38541] TX : 13 03 01 62 00 02 67 5B 
  39 [  38580] RX : 13 03 04 EF 1C 42 6F 4D AC 

 100 [  38680] TX : 4E 03 00 4D 00 01 1A 22 
  40 [  38720] RX : 4E 03 02 00 00 ED 8A 

 100 [  38820] TX : 13 03 01 6A 00 06 E7 5A 
  60 [  38880] RX : 13 03 0C B8 62 42 F1 38 BF 42 F1 B4 67 42 F2 E4 2B 

 100 [  38980] TX : 14 03 02 88 00 0C C6 98 
 420 [  39400] RX : 14 03 18 C3 FB 44 B2 0D 34 40 78 31 E6 3E C0 6F 7D BD D6 7F AA 3E F8 FF 22 3F 45 B7 55 

 100 [  39500] TX : 14 03 01 62 00 02 66 EC 
  30 [  39530] RX : 14 03 04 EE 74 42 6F BB 4C 

 100 [  39630] TX : 14 03 01 6A 00 06 E6 ED 
  70 [  39700] RX : 14 03 0C E0 40 42 F5 AD 24 42 F6 09 2B 42 F7 63 6C 

 100 [  39800] TX : 4E 03 00 49 00 01 5B E3 
  40 [  39840] RX : 4E 03 02 00 1E 6D 82 

 100 [  39940] TX : 15 03 02 88 00 0C C7 49 
  60 [  40000] RX : 15 03 18 C6 F1 45 93 D4 2A 42 45 5E A2 40 48 F7 2B BF D7 6F FF 40 6A CC 7C 3F 5A 41 22 

 100 [  40101] TX : 15 03 02 94 00 0C 06 8F 
  59 [  40160] RX : 15 03 18 DE E6 46 18 48 6B 42 B8 FE F8 40 F2 70 30 C0 85 31 B5 41 0C DC 2C 3F 5D D5 1D 

 101 [  40261] TX : 15 03 02 A0 00 0C 47 41 
 449 [  40710] RX : 15 03 18 B6 01 46 0B 7E C1 42 C2 9B B6 40 F2 C5 82 C0 83 F8 7E 41 0D BB FB 3F 5A 97 87 

 100 [  40810] TX : 15 03 02 AC 00 0C 87 42 
  60 [  40870] RX : 15 03 18 52 3D 45 BF AB 15 42 B9 BA 52 40 D8 88 9A C0 63 C9 1E 40 FB 5A FC 3F 5C 9F 32 

 100 [  40970] TX : 15 03 01 62 00 02 67 3D 
  30 [  41000] RX : 15 03 04 ED 9A 42 6F CB FD 

 100 [  41100] TX : 4E 03 00 46 00 01 6B E0 
  40 [  41140] RX : 4E 03 02 00 04 EC 49 

 100 [  41240] TX : 15 03 01 6A 00 06 E7 3C 
 460 [  41700] RX : 15 03 0C CE 89 42 F2 B6 DE 42 F2 EA 81 42 F1 42 7D 

 101 [  41802] TX : 16 03 02 88 00 0C C7 7A 
  58 [  41860] RX : 16 03 18 2F 30 46 0B 8C 8A 42 83 7E DB 3E 1A 2A A9 3D FB 0F 1E 3E 51 2F 62 3F 3D 1C 63 

 101 [  41962] TX : 16 03 02 94 00 0C 06 BC 
 488 [  42450] RX : 16 03 18 72 3B 45 C2 43 60 43 2B A9 14 41 35 21 60 C0 C1 CD 24 41 4E E0 C7 3F 60 8F 0B 

 102 [  42552] TX : 4E 03 00 40 00 03 0A 20 
  48 [  42600] RX : 4E 03 06 00 03 00 02 80 40 D4 B6 

 101 [  42701] TX : 16 03 02 A0 00 0C 47 72 
  59 [  42760] RX : 16 03 18 C0 8C 45 57 CE 14 43 3C 38 A1 40 BE 3D 23 C0 45 4A 42 40 D8 25 1F 3F 61 3C C2 

 100 [  42860] TX : 16 03 02 AC 00 0C 87 71 
  60 [  42920] RX : 16 03 18 D2 01 46 2E 19 D9 41 CF 61 A0 3E 84 5E 9A 3E 3F D2 C4 3E A9 8E E3 3F 47 2F 62 

 100 [  43020] TX : 16 03 02 B8 00 0C C7 75 
 430 [  43450] RX : 16 03 18 6C D8 44 A5 E9 79 36 AE 07 4E 41 66 D1 CB C0 F0 C2 8D 41 82 2C 5D 3F 61 39 BB 

 101 [  43551] TX : 16 03 01 62 00 02 67 0E 
  38 [  43590] RX : 16 03 04 EC 0C 42 6F 19 2D 

 101 [  43691] TX : 16 03 01 6A 00 06 E7 0F 
  49 [  43740] RX : 16 03 0C 64 33 42 F3 69 25 42 F3 82 0C 42 F1 56 77 

 101 [  43841] TX : 17 03 02 88 00 0C C6 AB 
  49 [  43890] RX : 17 03 18 C4 61 44 50 14 2D 44 09 A5 65 3F DC 4F 0C BD 5A 1E 52 3F DE 4D 94 3F 7E 36 C9 

 100 [  44000] TX : 17 03 02 94 00 0C 07 6D 
  60 [  44060] RX : 17 03 18 5A 2C 47 02 CE 03 3F 33 0E 65 40 18 C2 38 BD B4 79 37 40 18 4C A7 3F 7F EF 81 

 100 [  44161] TX : 17 03 02 A0 00 0C 46 A3 
  59 [  44220] RX : 17 03 18 C8 B9 46 A3 56 FD 41 B1 BB 2A 40 E5 2B DB BD 8C 31 D6 40 E6 7C 06 3F 7F DF 07 

 100 [  44320] TX : 17 03 02 AC 00 0C 86 A0 
 520 [  44840] RX : 17 03 18 7D BE 45 29 02 08 44 13 84 C7 40 F1 A0 80 BD 4A 69 DC 40 F2 0E 14 3F 7F 79 C0 

 115 [  44955] TX : 17 03 01 62 00 02 66 DF 
  35 [  44990] RX : 17 03 04 EB B0 42 6F C9 7D 

 100 [  45090] TX : 17 03 01 6A 00 06 E6 DE 
  50 [  45140] RX : 17 03 0C 71 5A 42 F0 46 09 42 F0 0E EC 42 F2 1E 14 

 101 [  45241] TX : 1A 03 02 88 00 0C C7 B6 
  59 [  45300] RX : 1A 03 18 CD AA 46 46 0D 9F 3D 30 C5 29 3F A7 FE AA BD 92 42 33 3F AA 42 27 3F 7C 22 23 

 100 [  45401] TX : 1A 03 02 94 00 0C 06 70 
  59 [  45460] RX : 1A 03 18 4A 17 46 72 84 B8 3D 5C 72 ED 3F FE 1A 7B BD E2 9A C9 3F FF D7 AF 3F 7E F6 9C 

 101 [  45561] TX : 1A 03 02 A0 00 0C 47 BE 
 499 [  46060] RX : 1A 03 18 70 2B 45 EE 1F 54 3D 57 67 FD 3F CC DA 67 BD E3 40 1C 3F D1 12 D1 3F 7A 26 3F 

 100 [  46160] TX : 1A 03 01 62 00 02 67 C2 
  30 [  46190] RX : 1A 03 04 E8 82 42 6F B4 36 

 100 [  46290] TX : 1A 03 01 6A 00 06 E7 C3 
  50 [  46340] RX : 1A 03 0C E3 26 42 F0 49 75 42 F1 AD 55 42 F4 CF 22 

 100 [  46440] TX : 38 03 12 16 00 06 24 1D 
  40 [  46480] RX : 38 03 0C 00 00 00 00 00 00 00 00 00 00 00 00 6A 62 

 100 [  46580] TX : 38 03 12 2A 00 06 E4 11 
  51 [  46631] RX : 38 03 0C 46 7C 94 24 45 6D 6C 63 46 82 1B BD D0 21 

 100 [  46731] TX : 38 03 12 34 00 02 85 D4 
  89 [  46820] RX : 38 03 04 42 6F E1 F8 3E 87 

 100 [  46920] TX : 38 03 12 52 00 02 65 CB 
 100 [  47020] RX : 38 03 04 00 00 00 00 53 30 

 100 [  47120] TX : 38 03 18 A0 00 04 47 E2 
 110 [  47230] RX : 38 03 08 03 00 00 00 00 00 42 1D F4 F7 

 100 [  47330] TX : 4E 03 01 00 00 50 4A 35 
 210 [  47540] RX : 4E 03 A0 00 0A 00 0A 00 0A 00 00 00 00 00 00 00 00 00 00 00 00 00 0B 00 0C 00 0F 00 00 00 00 00 00 00 00 00 00 00 50 00 00 00 00 00 00 01 E8 01 E8 01 E8 01 14 01 15 01 14 00 00 00 00 00 00 00 00 00 00 00 00 01 E8 01 E8 01 E8 01 17 01 18 01 16 01 E1 01 E4 01 E3 01 E8 01 E9 00 00 01 E7 00 00 00 00 00 00 00 01 00 00 00 03 00 03 00 04 00 01 00 0A 00 00 00 0A 00 D5 00 D2 00 A6 00 0A 00 3B 00 3C 00 3B 00 3C 00 00 00 00 00 00 00 00 00 00 00 00 00 0C 00 78 00 18 00 64 00 00 00 00 00 00 FF FF 1B DB 

 101 [  47643] TX : 50 03 00 40 00 03 09 9E 
  47 [  47690] RX : 50 03 06 00 03 00 02 80 40 55 16 

 101 [  47791] TX : 50 03 00 46 00 01 68 5E 
  39 [  47830] RX : 50 03 02 00 04 44 4B 

 100 [  47930] TX : 50 03 00 49 00 01 58 5D 
  60 [  47990] RX : 50 03 02 00 1E C5 80 

 101 [  48091] TX : 50 03 00 4D 00 01 19 9C 
  39 [  48130] RX : 50 03 02 00 00 45 88 

 100 [  48230] TX : 50 03 00 4F 00 01 B8 5C 
  40 [  48270] RX : 50 03 02 00 00 45 88 

 100 [  48370] TX : 50 03 01 00 00 50 49 8B 
  50 [  48420] RX : 50 03 A0 00 0A 00 0A 00 0A 00 00 00 00 00 00 00 00 00 00 00 00 00 0A 00 0A 00 0C 00 00 00 00 00 00 00 00 00 00 00 50 00 00 00 00 00 00 01 E8 01 E8 01 E8 01 15 01 15 01 15 00 00 00 00 00 00 00 00 00 00 00 00 01 E9 01 E9 01 E9 01 15 01 15 01 18 01 E1 01 E0 01 E6 01 E8 01 E9 00 00 01 E7 00 00 00 00 00 00 00 00 00 00 00 02 00 02 00 03 00 01 00 08 00 00 00 09 00 EB 00 DB 00 B9 00 0A 00 3B 00 3C 00 3B 00 3C 00 00 00 00 00 00 00 00 00 00 00 00 00 0C 00 78 00 18 00 64 00 00 00 00 00 00 FF FF DC A5 

 101 [  48683] TX : 0C 03 02 88 00 0C C5 40 
  57 [  48740] RX : 0C 03 18 6A 09 45 67 FB C9 44 36 04 6B 40 A8 CF BC 3F 0D 80 8A 40 AB CC 56 3F 7A 15 10 

 101 [  48841] TX : 0C 03 02 94 00 0C 04 86 
  59 [  48900] RX : 0C 03 18 F1 06 44 37 84 19 42 36 15 37 3E 91 A7 58 BB EA 6C 5F 3E D8 9D 1E 3F 2B DA 9D 

 101 [  49001] TX : 0C 03 02 A0 00 0C 45 48 
 499 [  49500] RX : 0C 03 18 6D 28 44 57 92 8D 43 64 D9 23 3F 45 27 E0 3E 3D 10 EF 3F 53 F7 D4 3F 6F CC E1 

 100 [  49600] TX : 0C 03 01 62 00 02 65 34 
  30 [  49630] RX : 0C 03 04 EA 7C 42 6F A3 BF 

 101 [  49731] TX : 0C 03 01 6A 00 06 E5 35 
  49 [  49780] RX : 0C 03 0C 87 90 42 F4 BE 92 42 F4 33 E1 42 F5 E9 4B 

 100 [  49880] TX : 0E 03 02 88 00 0C C4 A2 
  60 [  49940] RX : 0E 03 18 C3 DB 44 C0 D5 DD 3D DA 23 31 3F A2 DF EE BE 83 D4 C6 3F B2 1A 4A 3F 68 97 79 

 100 [  50040] TX : 0E 03 01 62 00 02 64 D6 
  30 [  50070] RX : 0E 03 04 E9 A2 42 6F E0 01 

 100 [  50170] TX : 0E 03 01 6A 00 06 E4 D7 
  81 [  50251] RX : 0E 03 0C BF 68 42 F2 FA FA 42 F1 0F 79 42 F4 A4 6C 

 101 [  50352] TX : 4E 03 00 4F 00 01 BB E2 
  38 [  50390] RX : 4E 03 02 00 00 ED 8A 

 100 [  50490] TX : 0F 03 02 88 00 0C C5 73 
 320 [  50810] RX : 0F 03 18 AE 9F 46 90 A0 5F 45 D2 72 0D 40 87 9E 50 3F E6 A5 4F 40 A2 30 05 3F 55 44 2E 

 100 [  50910] TX : 0F 03 01 62 00 02 65 07 
  30 [  50940] RX : 0F 03 04 EA 39 42 6F 81 6A 

 100 [  51040] TX : 0F 03 01 6A 00 06 E5 06 
  70 [  51110] RX : 0F 03 0C 08 0B 42 F3 91 FB 42 F2 F6 DA 42 F3 BC 6B 

 100 [  51210] TX : 13 03 02 88 00 0C C7 2F 
 140 [  51350] RX : 13 03 18 F0 8D 46 04 3C DC 3A FA D7 A4 40 8F 96 AB BD F8 1A 67 40 90 89 66 3F 7F 40 34 

 100 [  51450] TX : 13 03 01 62 00 02 67 5B 
  30 [  51480] RX : 13 03 04 EB BB 42 6F FD 7F 

 101 [  51581] TX : 4E 03 00 4D 00 01 1A 22 
  39 [  51620] RX : 4E 03 02 00 00 ED 8A 

 100 [  51720] TX : 13 03 01 6A 00 06 E7 5A 
  80 [  51800] RX : 13 03 0C DC 24 42 F1 BC E3 42 F1 A7 93 42 F2 0E CD 

 100 [  51901] TX : 14 03 02 88 00 0C C6 98 
  69 [  51970] RX : 14 03 18 C4 06 44 B2 0D 34 40 78 B8 44 3E CB D0 66 BD D4 6D A4 3E FF 2C FF 3F 4C A1 31 

 100 [  52070] TX : 14 03 01 62 00 02 66 EC 
 310 [  52380] RX : 14 03 04 EA A4 42 6F BB 85 

 100 [  52480] TX : 14 03 01 6A 00 06 E6 ED 
  70 [  52550] RX : 14 03 0C 36 0D 42 F6 C4 33 42 F6 E8 FE 42 F6 94 00 

 101 [  52651] TX : 4E 03 00 49 00 01 5B E3 
  39 [  52690] RX : 4E 03 02 00 1E 6D 82 

 100 [  52790] TX : 15 03 02 88 00 0C C7 49 
  20 [  52810] RX : 15 03 18 C7 07 45 93 D4 2A 42 45 96 EE 40 48 D0 FD BF D9 FC D3 40 67 5A 20 3F 5D 0C A3 

 101 [  52951] TX : 15 03 02 94 00 0C 06 8F 
  59 [  53010] RX : 15 03 18 DF 09 46 18 48 6B 42 B8 B8 2C 40 F1 F4 7F C0 84 DC 3A 41 0D 1A 41 3F 5A D7 00 

 100 [  53110] TX : 15 03 02 A0 00 0C 47 41 
  60 [  53170] RX : 15 03 18 B6 1C 46 0B 7E C1 42 C2 71 97 40 F3 DA D4 C0 84 A8 3F 41 0D F9 26 3F 5B 13 1C 

 100 [  53270] TX : 15 03 02 AC 00 0C 87 42 
 440 [  53710] RX : 15 03 18 52 69 45 BF AB 15 42 B9 E7 1D 40 D5 9C 0E C0 60 9C 43 40 FD EB 12 3F 57 BB D4 

 100 [  53810] TX : 15 03 01 62 00 02 67 3D 
  30 [  53840] RX : 15 03 04 EB 1D 42 6F 7B 5C 

 101 [  53941] TX : 4E 03 00 46 00 01 6B E0 
  39 [  53980] RX : 4E 03 02 00 04 EC 49 

 100 [  54080] TX : 15 03 01 6A 00 06 E7 3C 
  70 [  54150] RX : 15 03 0C 9E B0 42 F2 E2 19 42 F2 D6 E5 42 F1 AC AD 

 100 [  54251] TX : 16 03 02 88 00 0C C7 7A 
 209 [  54460] RX : 16 03 18 2F 31 46 0B 8C CB 42 83 B7 AC 3E 1C 8E 2F 3D FC 5E 41 3E 53 CF 36 3F 3D D6 7B 

 101 [  54561] TX : 16 03 02 94 00 0C 06 BC 
  59 [  54620] RX : 16 03 18 72 89 45 C2 43 60 43 2B F3 BF 41 35 9B E5 C0 C1 24 35 41 4F DE 89 3F 60 05 D1 

 100 [  54721] TX : 4E 03 00 40 00 03 0A 20 
  39 [  54760] RX : 4E 03 06 00 03 00 02 80 40 D4 B6 

 100 [  54860] TX : 16 03 02 A0 00 0C 47 72 
  60 [  54920] RX : 16 03 18 C0 DD 45 57 CE 14 43 3C 47 A1 40 BE C5 F9 C0 45 5C F6 40 D8 23 68 3F 61 86 0B 

 102 [  55022] TX : 16 03 02 AC 00 0C 87 71 
 438 [  55460] RX : 16 03 18 D2 02 46 2E 1B 29 41 CF AF A8 3E 86 4A E7 3E 44 49 12 3E AD F9 E1 3F 46 68 C9 

 100 [  55561] TX : 16 03 02 B8 00 0C C7 75 
  59 [  55620] RX : 16 03 18 6E 7F 44 A5 E9 79 36 AE 07 4E 41 66 D1 CB C0 F0 C2 8D 41 82 2C 5D 3F 61 14 B8 

 100 [  55721] TX : 16 03 01 62 00 02 67 0E 
  29 [  55750] RX : 16 03 04 EB 1A 42 6F F9 9D 

 101 [  55851] TX : 16 03 01 6A 00 06 E7 0F 
  49 [  55900] RX : 16 03 0C C9 1C 42 F3 DC C3 42 F3 AD 84 42 F1 67 CA 

 110 [  56010] TX : 17 03 02 88 00 0C C6 AB 
  60 [  56070] RX : 17 03 18 C4 BF 44 50 14 2D 44 09 A4 A4 3F DC 5D 84 BD 6F 13 F2 3F DE 58 97 3F 7E EE 28 

 100 [  56171] TX : 17 03 02 94 00 0C 07 6D 
  60 [  56231] RX : 17 03 18 5A 2E 47 02 CE 03 3F 33 24 61 40 18 85 75 BD B4 8D 73 40 18 4F AE 3F 7F AD E8 

 101 [  56332] TX : 17 03 02 A0 00 0C 46 A3 
 478 [  56810] RX : 17 03 18 C8 CC 46 A3 56 FD 41 B1 B8 1F 40 E5 BE 8C BD D4 2F F1 40 E6 7A BE 3F 7F EE BC 

 100 [  56911] TX : 17 03 02 AC 00 0C 86 A0 
  59 [  56970] RX : 17 03 18 7E 22 45 29 02 0E 44 13 5B EF 40 F1 F9 D8 BD 8F 44 F3 40 F2 09 C7 3F 7F A0 D8 

 101 [  57071] TX : 17 03 01 62 00 02 66 DF 
  29 [  57100] RX : 17 03 04 EB A2 42 6F 69 78 

 101 [  57201] TX : 17 03 01 6A 00 06 E6 DE 
  49 [  57250] RX : 17 03 0C 61 07 42 F0 6F 50 42 F0 FF C1 42 F1 0C C5 

 100 [  57350] TX : 1A 03 02 88 00 0C C7 B6 
  60 [  57410] RX : 1A 03 18 CD AE 46 46 0D 9F 3D 30 BD CA 3F A7 00 4A BD 83 30 DB 3F AA 50 C5 3F 7C E7 43 

 101 [  57511] TX : 1A 03 02 94 00 0C 06 70 
  39 [  57550] RX : 1A 03 18 4A 1D 46 72 84 B8 3D 5C 16 5D 3F FE 9E 97 BD E0 44 DB 3F FF D0 A4 3F 7E DE F9 

 100 [  57670] TX : 1A 03 02 A0 00 0C 47 BE 
 390 [  58060] RX : 1A 03 18 70 36 45 EE 1F 54 3D 57 92 D0 3F CC E2 60 BD D1 68 CE 3F D1 16 92 3F 7A EE 2D 

 100 [  58160] TX : 1A 03 01 62 00 02 67 C2 
  30 [  58190] RX : 1A 03 04 E9 75 42 6F 04 38 

 100 [  58290] TX : 1A 03 01 6A 00 06 E7 C3 
  50 [  58340] RX : 1A 03 0C 18 51 42 F1 4B 5D 42 F1 AD 55 42 F4 FD 06 

 100 [  58441] TX : 38 03 12 16 00 06 24 1D 
  39 [  58480] RX : 38 03 0C 00 00 00 00 00 00 00 00 00 00 00 00 6A 62 

 101 [  58582] TX : 38 03 12 2A 00 06 E4 11 
  48 [  58630] RX : 38 03 0C 46 79 BF 27 45 6A AE 4E 46 80 A0 4B 3C C0 

 101 [  58731] TX : 38 03 12 34 00 02 85 D4 
  89 [  58820] RX : 38 03 04 42 6F E0 73 7F 70 

 100 [  58920] TX : 38 03 12 52 00 02 65 CB 
 120 [  59040] RX : 38 03 04 00 00 00 00 53 30 

 100 [  59140] TX : 38 03 18 A0 00 04 47 E2 
  90 [  59230] RX : 38 03 08 03 00 00 00 00 00 42 1D F4 F7 

 100 [  59330] TX : 4E 03 01 00 00 50 4A 35 
 220 [  59550] RX : 4E 03 A0 00 0A 00 0A 00 0A 00 00 00 00 00 00 00 00 00 00 00 00 00 0A 00 0C 00 0F 00 00 00 00 00 00 00 00 00 00 00 50 00 00 00 00 00 00 01 E8 01 E8 01 E8 01 14 01 15 01 15 00 00 00 00 00 00 00 00 00 00 00 00 01 E9 01 E9 01 E9 01 17 01 19 01 16 01 E1 01 E5 01 E3 01 E8 01 E9 00 00 01 E7 00 00 00 00 00 00 00 01 00 00 00 03 00 03 00 04 00 01 00 0A 00 00 00 0A 00 D5 00 D0 00 A6 00 0A 00 3B 00 3C 00 3B 00 3C 00 00 00 00 00 00 00 00 00 00 00 00 00 0C 00 78 00 18 00 64 00 00 00 00 00 00 FF FF 73 D9 

 101 [  59653] TX : 50 03 00 40 00 03 09 9E 
  47 [  59700] RX : 50 03 06 00 03 00 02 80 40 55 16 

 100 [  59800] TX : 50 03 00 46 00 01 68 5E 
  40 [  59840] RX : 50 03 02 00 04 44 4B 

 101 [  59941] TX : 50 03 00 49 00 01 58 5D 
  39 [  59980] RX : 50 03 02 00 1E C5 80 

 100 [  60080] TX : 50 03 00 4D 00 01 19 9C 
  39 [  60120] RX : 50 03 02 00 00 45 88 

 100 [  60220] TX : 50 03 00 4F 00 01 B8 5C 
  40 [  60260] RX : 50 03 02 00 00 45 88 

 100 [  60360] TX : 50 03 01 00 00 50 49 8B 
 210 [  60570] RX : 50 03 A0 00 0A 00 0A 00 0A 00 00 00 00 00 00 00 00 00 00 00 00 00 09 00 0A 00 0C 00 00 00 00 00 00 00 00 00 00 00 50 00 00 00 00 00 00 01 E9 01 E9 01 E9 01 14 01 15 01 15 00 00 00 00 00 00 00 00 00 00 00 00 01 EA 01 EA 01 EA 01 16 01 15 01 18 01 E1 01 E0 01 E6 01 E9 01 EA 00 00 01 E7 00 00 00 00 00 00 00 00 00 00 00 02 00 02 00 03 00 01 00 09 00 00 00 09 00 C8 00 F2 00 CD 00 0A 00 3C 00 3C 00 3B 00 3C 00 00 00 00 00 00 00 00 00 00 00 00 00 0C 00 78 00 18 00 64 00 00 00 00 00 00 FF FF A7 D6 

 101 [  60674] TX : 0C 03 02 88 00 0C C5 40 
  26 [  60700] RX : 0C 03 18 6A 4F 45 67 FB F0 44 36 01 39 40 A3 FC 14 3E FF 09 F3 40 A6 52 70 3F 7B 33 BD 

 101 [  60831] TX : 0C 03 02 94 00 0C 04 86 
  59 [  60890] RX : 0C 03 18 F1 15 44 37 84 19 42 36 46 25 3E 94 FF 1B BB A8 25 A2 3E DF 1A 90 3F 2A 26 82 

 100 [  60991] TX : 0C 03 02 A0 00 0C 45 48 
 509 [  61500] RX : 0C 03 18 6D 52 44 57 92 B9 43 64 B5 AC 3F 44 1E 14 3E 3B E8 12 3F 51 E7 BD 3F 6F E1 1A 

 100 [  61601] TX : 0C 03 01 62 00 02 65 34 
  29 [  61630] RX : 0C 03 04 E6 D6 42 6F 80 CF 

 100 [  61730] TX : 0C 03 01 6A 00 06 E5 35 
  49 [  61780] RX : 0C 03 0C C1 A6 42 F4 B6 68 42 F4 61 48 42 F5 9A C5 

 100 [  61880] TX : 0E 03 02 88 00 0C C4 A2 
  60 [  61940] RX : 0E 03 18 C3 FE 44 C0 D5 DD 3D DA 80 62 3F A1 F8 8F BE 83 68 E3 3F B2 BD 08 3F 67 EE 76 

 101 [  62041] TX : 0E 03 01 62 00 02 64 D6 
  39 [  62080] RX : 0E 03 04 E7 58 42 6F C2 D8 

 100 [  62180] TX : 0E 03 01 6A 00 06 E4 D7 
  80 [  62260] RX : 0E 03 0C E5 70 42 F2 35 C3 42 F2 EE 6C 42 F3 C5 3D 

 100 [  62361] TX : 4E 03 00 4F 00 01 BB E2 
  39 [  62400] RX : 4E 03 02 00 00 ED 8A 

 101 [  62501] TX : 0F 03 02 88 00 0C C5 73 
 269 [  62770] RX : 0F 03 18 AE A6 46 90 A0 6B 45 D2 6C 80 40 87 60 C3 3F E6 DF 8B 40 A2 DB 12 3F 54 DD DF 

 100 [  62871] TX : 0F 03 01 62 00 02 65 07 
  39 [  62910] RX : 0F 03 04 E6 50 42 6F 52 26 

 101 [  63012] TX : 0F 03 01 6A 00 06 E5 06 
  68 [  63080] RX : 0F 03 0C 92 4F 42 F2 AD C6 42 F2 E7 F8 42 F3 60 27 

 100 [  63180] TX : 13 03 02 88 00 0C C7 2F 
 191 [  63371] RX : 13 03 18 F0 9C 46 04 3C DC 3A FA CD A5 40 8F 58 57 BD F8 0F 10 40 90 8B C0 3F 7F FB A5 

 100 [  63471] TX : 13 03 01 62 00 02 67 5B 
  39 [  63510] RX : 13 03 04 E4 BA 42 6F AF AB 

 100 [  63610] TX : 4E 03 00 4D 00 01 1A 22 
  40 [  63650] RX : 4E 03 02 00 00 ED 8A 

 101 [  63751] TX : 13 03 01 6A 00 06 E7 5A 
  69 [  63820] RX : 13 03 0C CC 2E 42 F1 64 F4 42 F1 D9 9A 42 F2 4D 3B 

 101 [  63922] TX : 14 03 02 88 00 0C C6 98 
  58 [  63980] RX : 14 03 18 C4 10 44 B2 0D 34 40 78 7A 94 3E C5 EE DC BD D8 8E BB 3E FD 61 8F 3F 47 D5 F5 

 100 [  64081] TX : 14 03 01 62 00 02 66 EC 
 259 [  64340] RX : 14 03 04 E2 C9 42 6F 28 38 

 100 [  64440] TX : 14 03 01 6A 00 06 E6 ED 
  70 [  64510] RX : 14 03 0C 2E A6 42 F6 98 2F 42 F6 E9 A9 42 F6 FB 82 

 100 [  64610] TX : 4E 03 00 49 00 01 5B E3 
  40 [  64650] RX : 4E 03 02 00 1E 6D 82 

 100 [  64750] TX : 15 03 02 88 00 0C C7 49 
  60 [  64810] RX : 15 03 18 C7 1C 45 93 D4 2A 42 45 C9 7B 40 47 7A 65 BF D9 8F 5B 40 66 D4 E1 3F 5D 8E D2 

 100 [  64911] TX : 15 03 02 94 00 0C 06 8F 
  59 [  64970] RX : 15 03 18 DF 22 46 18 48 6B 42 B8 8E E9 40 EF 53 51 C0 84 40 AE 41 0F 0D 33 3F 56 2D 19 

 100 [  65070] TX : 15 03 02 A0 00 0C 47 41 
 105 [  65175] RX : 15 03 18 B6 36 46 0B 7E C1 42 C2 CA 2D 40 F4 3B 9A C0 85 14 A9 41 0F FD 29 3F 5A 13 F2 

 101 [  65276] TX : 15 03 02 AC 00 0C 87 42 
 434 [  65710] RX : 15 03 18 52 97 45 BF AB 15 42 B9 4B 99 40 D6 A4 87 C0 60 72 1E 40 FC 4F FA 3F 59 BA A5 

 100 [  65811] TX : 15 03 01 62 00 02 67 3D 
  39 [  65850] RX : 15 03 04 E3 58 42 6F 68 E9 

 101 [  65951] TX : 4E 03 00 46 00 01 6B E0 
  39 [  65990] RX : 4E 03 02 00 04 EC 49 

 100 [  66090] TX : 15 03 01 6A 00 06 E7 3C 
  60 [  66150] RX : 15 03 0C A6 5F 42 F2 BA 12 42 F2 D6 E5 42 F1 D4 BF 

 101 [  66251] TX : 16 03 02 88 00 0C C7 7A 
 189 [  66440] RX : 16 03 18 2F 31 46 0B 8D 00 42 83 6A 67 3E 1B 17 C5 3D FC CF 98 3E 51 A1 3B 3F 3D B5 87 

 101 [  66561] TX : 16 03 02 94 00 0C 06 BC 
  59 [  66620] RX : 16 03 18 72 D7 45 C2 43 60 43 2B F4 41 41 35 DE 46 C0 C0 16 F7 41 4F ED 8B 3F 60 CE D0 

 100 [  66720] TX : 4E 03 00 40 00 03 0A 20 
  40 [  66760] RX : 4E 03 06 00 03 00 02 80 40 D4 B6 

 101 [  66861] TX : 16 03 02 A0 00 0C 47 72 
  59 [  66920] RX : 16 03 18 C1 2E 45 57 CE 14 43 3C 86 94 40 BE 33 B2 C0 45 7C 1E 40 D8 4D 72 3F 61 8C 39 

 100 [  67020] TX : 16 03 02 AC 00 0C 87 71 
 440 [  67460] RX : 16 03 18 D2 02 46 2E 1C 84 41 CF 48 A9 3E 86 2A 05 3E 45 34 EE 3E AD 78 C9 3F 46 18 9D 

 101 [  67561] TX : 16 03 02 B8 00 0C C7 75 
  59 [  67620] RX : 16 03 18 70 09 44 A5 E9 79 36 AE 07 4E 41 66 D1 CB C0 F0 C2 8D 41 82 2C 5D 3F 61 3D D4 

 101 [  67722] TX : 16 03 01 62 00 02 67 0E 
  38 [  67760] RX : 16 03 04 E0 EC 42 6F 1B 8B 

 100 [  67860] TX : 16 03 01 6A 00 06 E7 0F 
  50 [  67910] RX : 16 03 0C D1 D5 42 F3 3D DC 42 F3 DD 8F 42 F1 DF 32 

 100 [  68010] TX : 17 03 02 88 00 0C C6 AB 
  60 [  68070] RX : 17 03 18 C5 1D 44 50 14 2D 44 09 4C 71 3F DC 79 FA BD 70 B2 4C 3F DD 62 C6 3F 7E 6D 75 

 101 [  68171] TX : 17 03 02 94 00 0C 07 6D 
  59 [  68230] RX : 17 03 18 5A 30 47 02 CE 03 3F 33 CB A4 40 17 50 DA BD A2 2B C4 40 18 5E 4A 3F 7F A3 7E 

 100 [  68330] TX : 17 03 02 A0 00 0C 46 A3 
 479 [  68810] RX : 17 03 18 C8 D8 46 A3 56 FD 41 B1 AF F4 40 E5 04 50 BD 9A 26 55 40 E6 7C 53 3F 7F F0 F9 

 100 [  68910] TX : 17 03 02 AC 00 0C 86 A0 
  60 [  68970] RX : 17 03 18 7E 8C 45 29 02 14 44 13 BF 66 40 F1 09 E3 BD 87 AA CA 40 F2 07 AD 3F 7F 39 6A 

 101 [  69071] TX : 17 03 01 62 00 02 66 DF 
  29 [  69100] RX : 17 03 04 E3 6E 42 6F AB 27 

 100 [  69200] TX : 17 03 01 6A 00 06 E6 DE 
  50 [  69250] RX : 17 03 0C 41 F2 42 F0 71 9C 42 F0 F8 B3 42 F1 B2 56 

 100 [  69350] TX : 1A 03 02 88 00 0C C7 B6 
  60 [  69410] RX : 1A 03 18 CD B3 46 46 0D 9F 3D 30 63 71 3F A7 FE B9 BD 8F D2 B9 3F A9 54 6F 3F 7C CA DB 

 101 [  69511] TX : 1A 03 02 94 00 0C 06 70 
  59 [  69570] RX : 1A 03 18 4A 25 46 72 84 B8 3D 5C 82 19 3F FE B6 81 BD DA A6 82 3F FF DB 31 3F 7E 90 C3 

 102 [  69672] TX : 1A 03 02 A0 00 0C 47 BE 
 399 [  70071] RX : 1A 03 18 70 40 45 EE 1F 54 3D 57 33 2C 3F CC BE C2 BD DC 23 B7 3F D1 F4 1F 3F 79 A9 C4 

 100 [  70171] TX : 1A 03 01 62 00 02 67 C2 
  38 [  70210] RX : 1A 03 04 E1 B1 42 6F 47 A5 

 101 [  70311] TX : 1A 03 01 6A 00 06 E7 C3 
  49 [  70360] RX : 1A 03 0C A3 69 42 F0 E4 21 42 F1 B3 A7 42 F4 D2 37 

 100 [  70460] TX : 38 03 12 16 00 06 24 1D 
  40 [  70500] RX : 38 03 0C 00 00 00 00 00 00 00 00 00 00 00 00 6A 62 

 101 [  70601] TX : 38 03 12 2A 00 06 E4 11 
  39 [  70640] RX : 38 03 0C 46 76 75 8D 45 68 5F 44 46 7D EE EF A4 64 

 101 [  70741] TX : 38 03 12 34 00 02 85 D4 
  79 [  70820] RX : 38 03 04 42 6F DE 2B 6E EA 

 100 [  70920] TX : 38 03 12 52 00 02 65 CB 
 100 [  71020] RX : 38 03 04 00 00 00 00 53 30 

 101 [  71121] TX : 38 03 18 A0 00 04 47 E2 
 109 [  71230] RX : 38 03 08 03 00 00 00 00 00 42 1D F4 F7 

 100 [  71330] TX : 4E 03 01 00 00 50 4A 35 
  70 [  71400] RX : 4E 03 A0 00 0A 00 0A 00 0A 00 00 00 00 00 00 00 00 00 00 00 00 00 0B 00 0C 00 0F 00 00 00 00 00 00 00 00 00 00 00 50 00 00 00 00 00 00 01 E8 01 E8 01 E8 01 14 01 15 01 14 00 00 00 00 00 00 00 00 00 00 00 00 01 E9 01 E9 01 E9 01 16 01 18 01 16 01 E4 01 E5 01 E3 01 E8 01 E8 00 00 01 E7 00 00 00 00 00 00 00 01 00 00 00 03 00 03 00 04 00 01 00 0A 00 00 00 0A 00 DB 00 D3 00 A7 00 0A 00 3B 00 3C 00 3B 00 3B 00 00 00 00 00 00 00 00 00 00 00 00 00 0C 00 78 00 18 00 64 00 00 00 00 00 00 FF FF 34 AE 

 101 [  71644] TX : 50 03 00 40 00 03 09 9E 
  46 [  71690] RX : 50 03 06 00 03 00 02 80 40 55 16 

 100 [  71790] TX : 50 03 00 46 00 01 68 5E 
  40 [  71830] RX : 50 03 02 00 04 44 4B 

 100 [  71930] TX : 50 03 00 49 00 01 58 5D 
  40 [  71970] RX : 50 03 02 00 1E C5 80 

 111 [  72081] TX : 50 03 00 4D 00 01 19 9C 
  39 [  72120] RX : 50 03 02 00 00 45 88 

 100 [  72220] TX : 50 03 00 4F 00 01 B8 5C 
  40 [  72260] RX : 50 03 02 00 00 45 88 

 100 [  72360] TX : 50 03 01 00 00 50 49 8B 
 220 [  72580] RX : 50 03 A0 00 0A 00 0A 00 0A 00 00 00 00 00 00 00 00 00 00 00 00 00 0A 00 0A 00 0C 00 00 00 00 00 00 00 00 00 00 00 50 00 00 00 00 00 00 01 E8 01 E8 01 E8 01 14 01 15 01 15 00 00 00 00 00 00 00 00 00 00 00 00 01 E9 01 E9 01 E9 01 16 01 16 01 17 01 E3 01 E2 01 E3 01 E8 01 E9 00 00 01 E7 00 00 00 00 00 00 00 00 00 00 00 02 00 02 00 03 00 01 00 09 00 00 00 09 00 E8 00 DD 00 B7 00 0A 00 3B 00 3C 00 3B 00 3C 00 00 00 00 00 00 00 00 00 00 00 00 00 0C 00 78 00 18 00 64 00 00 00 00 00 00 FF FF 8F CB 

 101 [  72684] TX : 0C 03 02 88 00 0C C5 40 
  56 [  72740] RX : 0C 03 18 6A 93 45 67 FC 15 44 36 C5 67 40 9F AD F4 3E F2 95 5E 40 A2 92 5C 3F 7B AE 21 

 100 [  72841] TX : 0C 03 02 94 00 0C 04 86 
  59 [  72900] RX : 0C 03 18 F1 25 44 37 84 19 42 36 2F CA 3E 97 7D 02 BB C6 DE 4F 3E E2 99 A6 3F 2A 87 57 

 100 [  73001] TX : 0C 03 02 A0 00 0C 45 48 
 499 [  73500] RX : 0C 03 18 6D 7B 44 57 92 E4 43 64 AB BB 3F 42 1E DD 3E 3C 0C 9C 3F 50 89 C3 3F 6F 2D D4 

 100 [  73600] TX : 0C 03 01 62 00 02 65 34 
  30 [  73630] RX : 0C 03 04 E3 AB 42 6F 10 1B 

 100 [  73730] TX : 0C 03 01 6A 00 06 E5 35 
  50 [  73780] RX : 0C 03 0C 7F 18 42 F4 DD 71 42 F4 05 C3 42 F5 F3 46 

 101 [  73882] TX : 0E 03 02 88 00 0C C4 A2 
  58 [  73940] RX : 0E 03 18 C4 20 44 C0 D5 DD 3D DA 12 83 3F A1 F8 E1 BE 83 4A D7 3F B1 94 47 3F 68 E8 08 

 101 [  74041] TX : 0E 03 01 62 00 02 64 D6 
  50 [  74091] RX : 0E 03 04 E3 48 42 6F C2 2D 

 100 [  74192] TX : 0E 03 01 6A 00 06 E4 D7 
 428 [  74620] RX : 0E 03 0C E1 1A 42 F2 0C EA 42 F2 09 85 42 F4 36 15 

 101 [  74721] TX : 4E 03 00 4F 00 01 BB E2 
  39 [  74760] RX : 4E 03 02 00 00 ED 8A 

 101 [  74861] TX : 0F 03 02 88 00 0C C5 73 
  59 [  74920] RX : 0F 03 18 AE AE 46 90 A0 77 45 D2 7F 37 40 87 C1 6F 3F E5 B1 D7 40 A2 34 50 3F 55 CE A1 

 100 [  75020] TX : 0F 03 01 62 00 02 65 07 
  30 [  75050] RX : 0F 03 04 E1 C0 42 6F 53 7F 

 101 [  75151] TX : 0F 03 01 6A 00 06 E5 06 
  69 [  75220] RX : 0F 03 0C 27 27 42 F3 50 66 42 F2 0D F0 42 F4 6D 2B 

 100 [  75321] TX : 13 03 02 88 00 0C C7 2F 
 129 [  75450] RX : 13 03 18 F0 AB 46 04 3C DC 3A FA DE BA 40 8F 7D 17 BD F8 21 21 40 90 8A 0F 3F 7F 92 75 

 100 [  75550] TX : 13 03 01 62 00 02 67 5B 
  40 [  75590] RX : 13 03 04 E2 6B 42 6F FF 1A 

 100 [  75690] TX : 4E 03 00 4D 00 01 1A 22 
  40 [  75730] RX : 4E 03 02 00 00 ED 8A 

 100 [  75830] TX : 13 03 01 6A 00 06 E7 5A 
  70 [  75900] RX : 13 03 0C D5 51 42 F1 67 42 42 F1 80 AC 42 F2 6F 41 

 100 [  76000] TX : 14 03 02 88 00 0C C6 98 
 400 [  76400] RX : 14 03 18 C4 1C 44 B2 0D 34 40 78 2B 0E 3E C3 49 F5 BD D6 8F 8B 3E FD 0B B5 3F 45 9C 4C 

 101 [  76501] TX : 14 03 01 62 00 02 66 EC 
  29 [  76530] RX : 14 03 04 E1 8F 42 6F C9 A9 

 101 [  76631] TX : 14 03 01 6A 00 06 E6 ED 
  69 [  76700] RX : 14 03 0C D7 DF 42 F5 7E 3F 42 F6 D3 12 42 F6 D7 6C 

 100 [  76800] TX : 4E 03 00 49 00 01 5B E3 
  39 [  76840] RX : 4E 03 02 00 1E 6D 82 

 101 [  76941] TX : 15 03 02 88 00 0C C7 49 
  59 [  77000] RX : 15 03 18 C7 32 45 93 D4 2A 42 45 24 38 40 48 4E 47 BF D9 09 6C 40 68 CF 8D 3F 5C F3 42 

 106 [  77107] TX : 15 03 02 94 00 0C 06 8F 
  53 [  77160] RX : 15 03 18 DF 3C 46 18 48 6B 42 B8 14 F5 40 EF D0 B7 C0 82 87 46 41 11 49 06 3F 52 36 ED 

 100 [  77260] TX : 15 03 02 A0 00 0C 47 41 
 450 [  77710] RX : 15 03 18 B6 4F 46 0B 7E C1 42 C2 F2 8A 40 F2 AC 69 C0 84 08 2C 41 10 E7 C8 3F 57 C6 A5 

 100 [  77811] TX : 15 03 02 AC 00 0C 87 42 
  59 [  77870] RX : 15 03 18 52 C6 45 BF AB 15 42 B9 2E 0E 40 D7 D7 B9 C0 61 32 D9 40 FB 4A F6 3F 5B 75 A3 

 101 [  77971] TX : 15 03 01 62 00 02 67 3D 
  29 [  78000] RX : 15 03 04 E1 3E 42 6F 89 4E 

 114 [  78114] TX : 4E 03 00 46 00 01 6B E0 
  36 [  78150] RX : 4E 03 02 00 04 EC 49 

 101 [  78251] TX : 15 03 01 6A 00 06 E7 3C 
 449 [  78700] RX : 15 03 0C A6 5F 42 F2 61 87 42 F2 78 D8 42 F1 EC 7D 

 100 [  78800] TX : 16 03 02 88 00 0C C7 7A 
  60 [  78860] RX : 16 03 18 2F 32 46 0B 8D 37 42 83 C3 B7 3E 1A AB EF 3D FE 6E B4 3E 52 47 11 3F 3C 03 81 

 100 [  78961] TX : 16 03 02 94 00 0C 06 BC 
 489 [  79450] RX : 16 03 18 73 24 45 C2 43 60 43 2B DE E6 41 35 91 2F C0 C0 0D F9 41 4F DC E9 3F 60 71 0E 

 101 [  79551] TX : 4E 03 00 40 00 03 0A 20 
  39 [  79590] RX : 4E 03 06 00 03 00 02 80 40 D4 B6 

 101 [  79692] TX : 16 03 02 A0 00 0C 47 72 
  58 [  79750] RX : 16 03 18 C1 80 45 57 CE 14 43 3C 5D DA 40 BE 48 7E C0 45 56 CF 40 D8 44 1B 3F 61 91 E8 

 100 [  79850] TX : 16 03 02 AC 00 0C 87 71 
  60 [  79910] RX : 16 03 18 D2 03 46 2E 1D 