
================================================================
HEX PORT_LOGGING started on Mon Dec 17 12:59:38 2012
 for FieldServer with IP 10.10.11.2
     [       ] RX : 9E 

 101 [    101] TX : 05 03 01 6A 00 06 E5 AC 
  49 [    150] RX : 05 03 0C A6 1A 42 F3 39 2C 42 F3 67 7A 42 F4 F0 49 

 101 [    252] TX : 06 03 02 88 00 0C C5 EA 
 298 [    550] RX : 06 03 18 9B 9D 46 8B CC FD 44 51 39 47 40 32 D1 E2 BE D0 7E A2 40 4F E2 F3 3F 5B 67 97 

 100 [    650] TX : 07 03 02 88 00 0C C4 3B 
  60 [    710] RX : 07 03 18 07 3A 46 A6 54 9C 45 A9 33 E8 40 5D 50 34 3F 6E B6 26 40 88 1B 78 3F 4F 62 24 

 100 [    810] TX : 06 03 02 94 00 0C 04 2C 
  60 [    870] RX : 06 03 18 56 A9 44 1C AA 06 44 13 2D 58 3E 91 7F 45 3E 55 AB FB 3E C3 EF E9 3F 3D BF 7C 

 100 [    971] TX : 07 03 01 62 00 02 64 4F 
 169 [   1140] RX : 07 03 04 04 25 42 70 BD 8C 

 101 [   1241] TX : 06 03 02 A0 00 0C 45 E2 
 339 [   1580] RX : 06 03 18 50 97 46 2F BF 1B 43 5E 10 A0 3F AC 15 68 3E 24 33 E1 3F B2 2E CA 3F 77 23 70 

 101 [   1681] TX : 06 03 02 AC 00 0C 85 E1 
  59 [   1740] RX : 06 03 18 79 13 44 B6 E4 68 44 A1 A3 4C 3E A7 2A 4E 3E 97 94 5B 3E EC 66 28 3F 35 96 73 

 101 [   1842] TX : 06 03 02 B8 00 0C C5 E5 
  48 [   1890] RX : 06 03 18 F1 BC 46 75 C6 45 43 FF 06 D8 40 7F 5D 5D BE E0 0C 41 40 8B C3 90 3F 6A A2 73 

 102 [   2002] TX : 07 03 01 6A 00 06 E4 4E 
 168 [   2170] RX : 07 03 0C AF 69 42 F4 4C 93 42 F3 B4 C2 42 F4 DC 90 

 100 [   2271] TX : 06 03 02 C4 00 0C 04 3D 
 309 [   2580] RX : 06 03 18 0C 47 44 B9 23 93 44 D9 4C D8 3E C0 A5 71 3E BC C6 95 3F 0E 66 34 3F 2C 4B 3F 

 100 [   2681] TX : 08 03 02 88 00 0C C4 C4 
  59 [   2740] RX : 08 03 18 1E DD 43 84 AD 1E 3F A1 C1 4B 40 00 3B C5 BF 63 E0 E8 40 64 03 1D 3F 10 E7 FF 

 101 [   2842] TX : 06 03 02 D0 00 0C 44 39 
  58 [   2900] RX : 06 03 18 82 8E 46 D5 39 DC 43 76 E8 58 3F 32 37 9F 3F 10 03 68 3F 71 08 4D 3F 3E B4 4E 

 105 [   3006] TX : 08 03 02 94 00 0C 05 02 
  84 [   3090] RX : 08 03 18 31 9B 43 65 EE 91 3E B2 E4 3F 3D 91 AF 0B BD 8F F0 1B 3E 15 17 67 3E F9 69 27 

 101 [   3191] TX : 06 03 02 DC 00 0C 84 3A 
 389 [   3580] RX : 06 03 18 3E 5B 44 D9 95 F1 44 AF 92 03 3E B8 EC 48 3E 9F BF D7 3F 00 7E FF 3F 37 FC 59 

 100 [   3681] TX : 06 03 01 62 00 02 65 9E 
  39 [   3720] RX : 06 03 04 03 57 42 70 0C 23 

 100 [   3820] TX : 08 03 02 A0 00 0C 44 CC 
  99 [   3920] RX : 08 03 18 8B B2 43 63 FB 61 3E B3 14 18 3D A8 C6 11 BD 9A 45 0A 3E 25 2C E7 3F 02 DC 53 

 101 [   4021] TX : 06 03 01 6A 00 06 E5 9F 
  49 [   4070] RX : 06 03 0C 2D F9 42 F4 B6 8A 42 F3 B6 FE 42 F4 DD 65 

 101 [   4171] TX : 08 03 02 AC 00 0C 84 CF 
 399 [   4570] RX : 08 03 18 B7 54 44 50 7A F4 3E 38 48 F4 3D A3 C0 6E BD EB C7 16 3E 50 37 B1 3E C8 DE 86 

 101 [   4671] TX : 09 03 02 88 00 0C C5 15 
  59 [   4730] RX : 09 03 18 18 8D 44 2C D2 F2 34 4D 72 A6 40 CA 87 0E C0 61 CF 1E 40 EB C8 43 3F 5B 56 50 

 102 [   4832] TX : 08 03 02 B8 00 0C C4 CB 
  58 [   4890] RX : 08 03 18 C4 01 45 89 91 53 42 C8 27 AC 3E 4A 24 C8 BD C2 9A 67 3E 9B 4B 36 3F 26 88 62 

 121 [   5012] TX : 09 03 02 94 00 0C 04 D3 
 308 [   5320] RX : 09 03 18 D4 85 44 51 72 B1 37 4C 51 37 40 DE 9B 67 C0 77 38 0C 41 04 39 30 3F 57 8A F8 

 100 [   5421] TX : 08 03 02 C4 00 0C 05 13 
 119 [   5540] RX : 08 03 18 3F 82 44 D8 DE 22 41 D2 E0 74 3E B0 43 9C BE 3C 29 39 3F 0B B0 DC 3F 22 A3 F7 

 100 [   5641] TX : 08 03 01 62 00 02 64 B0 
  38 [   5679] RX : 08 03 04 01 03 42 70 A3 8B 

 101 [   5780] TX : 08 03 01 6A 00 06 E4 B1 
  50 [   5830] RX : 08 03 0C 31 B4 42 F4 88 FB 42 F3 06 BB 42 F5 F9 A9 

 100 [   5931] TX : 09 03 02 A0 00 0C 45 1D 
 388 [   6319] RX : 09 03 18 C5 2B 43 C6 95 F2 3C 80 9E 09 40 58 73 93 BF D1 F4 F6 40 79 DA BA 3F 5D 18 55 

 101 [   6421] TX : 0A 03 02 88 00 0C C5 26 
  59 [   6480] RX : 0A 03 18 00 0B 45 A0 67 E3 42 35 BC 26 3F C4 5E 20 BA 6A 82 65 3F C5 FF 0C 3F 7E 35 0C 

 100 [   6580] TX : 09 03 02 AC 00 0C 85 1E 
  60 [   6640] RX : 09 03 18 DE E1 43 B5 4D 15 3C 99 FA 08 40 39 4D D8 BF CE 7D FC 40 5E FC 39 3F 55 47 46 

 100 [   6741] TX : 0A 03 01 62 00 02 65 52 
  99 [   6840] RX : 0A 03 04 02 61 42 70 21 D1 

 101 [   6941] TX : 09 03 01 62 00 02 65 61 
 529 [   7470] RX : 09 03 04 00 6A 42 70 62 AB 

 101 [   7571] TX : 09 03 01 6A 00 06 E5 60 
  49 [   7620] RX : 09 03 0C D2 B6 42 F3 7F 8B 42 F3 5E 2F 42 F4 3F F2 

 101 [   7721] TX : 0A 03 01 6A 00 06 E5 53 
  49 [   7770] RX : 0A 03 0C ED D2 42 EA 89 EA 42 F0 7D 11 42 F1 75 E5 

 100 [   7890] TX : 0B 03 02 88 00 0C C4 F7 
  60 [   7950] RX : 0B 03 18 04 EF 47 5C 30 A5 39 EB C2 28 41 72 B0 F0 C1 00 FE 98 41 89 2D 1B 3F 61 0B 94 

 100 [   8050] TX : 0B 03 02 94 00 0C 05 31 
  60 [   8110] RX : 0B 03 18 A0 B9 44 8E 3A 63 43 6C 8C 52 3E A7 C7 D5 3D 82 C1 E2 3E B0 A9 83 3F 72 D6 04 

 100 [   8210] TX : 0B 03 02 A0 00 0C 44 FF 
  60 [   8270] RX : 0B 03 18 86 E6 47 22 50 B4 3E B8 17 F1 41 0E FB 17 C0 9A F5 24 41 22 39 2F 3F 5F 39 27 

 100 [   8371] TX : 0B 03 02 AC 00 0C 84 FC 
 328 [   8699] RX : 0B 03 18 6C 9D 44 66 55 2D 43 99 40 EB 3E 3D 6B 37 3E 0C 75 10 3E 71 A6 F2 3F 48 E4 26 

 101 [   8801] TX : 0B 03 02 B8 00 0C C4 F8 
  59 [   8860] RX : 0B 03 18 D5 AE 46 FF 0E 67 3A 10 02 9D 41 2E CA 00 C0 BE 22 E7 41 47 B2 F6 3F 5F 95 32 

 100 [   8960] TX : 0B 03 02 C4 00 0C 05 20 
  60 [   9020] RX : 0B 03 18 C2 4A 44 9D 79 9A 44 04 E4 40 3F 8E 98 C9 BE 63 1A F6 3F 98 7E 2F 3F 70 10 19 

 101 [   9122] TX : 0B 03 02 D0 00 0C 45 24 
  58 [   9180] RX : 0B 03 18 4B 84 43 E0 F1 AA 37 0C 59 8A C0 8D 4E C8 40 01 0F 8D 41 5B 2F 59 BE A5 1E 75 

 100 [   9280] TX : 0B 03 01 62 00 02 64 83 
 750 [  10030] RX : 0B 03 04 01 1B 42 70 10 8C 

 100 [  10131] TX : 0B 03 01 6A 00 06 E4 82 
  48 [  10179] RX : 0B 03 0C 85 D6 42 F4 62 DA 42 F3 35 B5 42 F5 2D 52 

 101 [  10281] TX : 0D 03 02 88 00 0C C4 91 
  59 [  10340] RX : 0D 03 18 BF 26 46 28 AA DB 43 3A 33 37 40 45 F2 24 BF 31 0E 51 40 52 55 0F 3F 70 26 2F 

 101 [  10441] TX : 0D 03 01 62 00 02 64 E5 
  39 [  10480] RX : 0D 03 04 00 21 42 70 57 7D 

 101 [  10581] TX : 0D 03 01 6A 00 06 E4 E4 
  69 [  10650] RX : 0D 03 0C 12 5C 42 F4 74 69 42 F3 3B C4 42 F5 44 1E 

 100 [  10751] TX : 10 03 02 88 00 0C C7 1C 
  59 [  10810] RX : 10 03 18 E4 EB 42 97 B8 C7 3D 2F FE 7E 3C DB 10 E6 BD 86 42 E1 3F 00 8B C8 3D 5B 41 4D 

 100 [  10911] TX : 10 03 02 94 00 0C 06 DA 
  59 [  10970] RX : 10 03 18 57 3A 43 38 4F D6 3B B1 8E 13 3D 76 DD E0 BD FB 92 97 3F 09 66 2D 3D E5 19 89 

 100 [  11070] TX : 10 03 02 A0 00 0C 47 14 
  91 [  11161] RX : 10 03 18 CB 24 43 46 32 F6 3D 09 CF 40 3D 8F 36 81 BD D5 F3 82 3F 0E C4 C2 3E 00 5F 77 

 103 [  11264] TX : 10 03 02 AC 00 0C 87 17 
 347 [  11611] RX : 10 03 18 08 DB 42 A5 0A FB 3D A3 EA 0A 3B 52 70 C4 3B E2 A8 CB 3F 06 7B DB 3B C8 4C 85 

 101 [  11712] TX : 10 03 02 B8 00 0C C7 13 
  58 [  11770] RX : 10 03 18 63 DC 43 89 F8 E0 3E AB 37 7A 3E D1 0F CD BE 7B 17 A6 3F 98 13 53 3E B0 FC 5A 

 102 [  11872] TX : 10 03 02 C4 00 0C 06 CB 
  58 [  11930] RX : 10 03 18 6A 6C 43 F4 E2 2C 3F 55 C2 ED 3D 86 C0 A2 BD AF 11 E1 3F 02 9D EF 3E 04 C1 06 

 103 [  12033] TX : 10 03 01 62 00 02 67 68 
  37 [  12070] RX : 10 03 04 FF B9 42 6F 6A 4F 

 100 [  12171] TX : 10 03 01 6A 00 06 E7 69 
 439 [  12610] RX : 10 03 0C 3E A6 42 F4 BA 0F 42 F2 EB 4D 42 F4 B4 93 

 101 [  12711] TX : 11 03 02 88 00 0C C6 CD 
  39 [  12750] RX : 11 03 18 03 A3 46 CF 7A 8B 45 B8 35 06 40 16 CA 18 3F B4 E6 93 40 3D 7D 7D 3F 4A D4 3B 

 101 [  12872] TX : 11 03 01 62 00 02 66 B9 
  38 [  12910] RX : 11 03 04 FF CD 42 6F 3A 95 

 101 [  13011] TX : 11 03 01 6A 00 06 E6 B8 
 349 [  13360] RX : 11 03 0C D3 88 42 F3 9E A1 42 F3 14 E8 42 F5 33 B0 

 101 [  13461] TX : 12 03 02 88 00 0C C6 FE 
 289 [  13750] RX : 12 03 18 9B 6F 46 34 4E 34 42 6F C7 AA 40 76 DF 9C BC F3 FE 34 40 77 BF 6F 3F 7E BE C2 

 101 [  13852] TX : 12 03 01 62 00 02 66 8A 
  38 [  13890] RX : 12 03 04 FF 3D 42 6F 09 A6 

 101 [  13991] TX : 12 03 01 6A 00 06 E6 8B 
  68 [  14059] RX : 12 03 0C 31 2B 42 F1 FB AF 42 EF 82 D2 42 EF 6B F5 

 101 [  14161] TX : 32 03 12 16 00 06 24 B7 
  39 [  14200] RX : 32 03 0C 42 F4 7B A3 42 F5 DD 5D 42 F6 49 13 CC 26 

 100 [  14300] TX : 33 03 03 ED 00 06 51 AB 
  40 [  14340] RX : 33 03 0C 44 19 DA A8 44 1A 31 77 44 1A 06 3F 28 28 

 101 [  14441] TX : 32 03 12 2A 00 06 E4 BB 
  49 [  14490] RX : 32 03 0C 45 20 18 41 44 82 1E AA 45 37 97 0E 0D E1 

 100 [  14590] TX : 33 03 03 F9 00 0A 11 AA 
  50 [  14640] RX : 33 03 14 48 C4 86 8E 46 FD 47 D8 48 C7 AD DE 3F 7B F4 FA 42 6F F4 10 0D DB 

 101 [  14741] TX : 32 03 12 34 00 02 85 7E 
  29 [  14770] RX : 32 03 04 42 6F F5 C5 5A 56 

 100 [  14870] TX : 33 03 05 DB 00 14 31 20 
  70 [  14940] RX : 33 03 28 05 3A 98 36 00 00 00 00 05 3A 98 36 05 3A 98 36 00 A7 F6 13 FF FF F8 A9 00 A7 EE BC 00 A7 FD 6A 05 5D 12 17 02 73 6B 94 7F 50 

 103 [  15044] TX : 32 03 12 52 00 02 65 61 
  26 [  15070] RX : 32 03 04 3F 46 85 7B 36 42 

 101 [  15171] TX : 34 03 03 ED 00 06 50 1C 
  39 [  15210] RX : 34 03 0C 44 18 2B 82 44 19 35 8C 44 18 B1 38 98 13 

 101 [  15312] TX : 32 03 18 A0 00 04 47 48 
  28 [  15340] RX : 32 03 08 03 00 00 00 00 00 08 14 22 49 

 100 [  15440] TX : 34 03 03 F9 00 0A 10 1D 
  50 [  15490] RX : 34 03 14 49 4B 84 CB 45 A5 87 00 49 4D 7B FC 3F 7D 8D 1C 42 6F EC 67 6C AF 

 100 [  15591] TX : 34 03 05 DB 00 14 30 97 
  69 [  15660] RX : 34 03 28 04 A7 98 88 FF FF F8 6F 04 A7 90 F6 04 A7 A0 1A 00 B4 63 D6 FF BB A3 BF 00 70 07 95 00 F8 C0 17 04 E3 C0 0D 02 74 4B FE 8F 57 

 102 [  15762] TX : 35 03 03 ED 00 06 51 CD 
  38 [  15800] RX : 35 03 0C 44 17 C3 22 44 19 8B AE 44 18 A9 55 3C 48 

 101 [  15902] TX : 35 03 03 F9 00 0A 11 CC 
  48 [  15950] RX : 35 03 14 47 D7 BB 9B C7 4A C4 34 47 F7 32 C3 3F 5F 6A 08 42 6F EF 9E C8 80 

 102 [  16053] TX : 35 03 05 DB 00 14 31 46 
  67 [  16120] RX : 35 03 28 02 5E C8 8D 00 00 00 00 02 5E C8 8D 02 5E C8 8D 00 09 8E 69 FE CA E8 1D FE D4 76 87 01 3E A6 4C 02 B0 EC 24 01 91 A2 7F 4E 21 

 100 [  16221] TX : 37 03 03 ED 00 06 50 2F 
  39 [  16260] RX : 37 03 0C 44 18 43 54 44 19 50 83 44 18 CA D5 50 6A 

 101 [  16361] TX : 37 03 03 F9 00 0A 10 2E 
  49 [  16410] RX : 37 03 14 48 50 A9 16 46 9F 7E 00 48 5F D8 E4 3F 70 F3 F6 42 6F EE 3D 84 0D 

 102 [  16512] TX : 37 03 05 DB 00 14 30 A4 
  67 [  16579] RX : 37 03 28 04 C9 6D 37 00 00 00 00 04 C9 6D 37 04 C9 6D 37 00 7B D5 5C FF FF F1 B6 00 7B C7 11 00 7B E3 A6 05 23 14 A0 02 74 09 F4 60 95 

 100 [  16680] TX : 70 03 00 40 00 01 8F 3F 
  20 [  16700] RX : 70 03 02 49 01 32 1F 

 100 [  16810] TX : 70 03 00 48 00 01 0E FD 
  30 [  16840] RX : 70 03 02 80 50 A5 B3 

 100 [  16940] TX : 70 03 00 4A 00 01 AF 3D 
  29 [  16969] RX : 70 03 02 40 00 F5 8F 

 101 [  17071] TX : 70 03 00 4C 00 01 4F 3C 
  29 [  17100] RX : 70 03 02 04 10 C7 43 

 101 [  17201] TX : 01 03 02 88 00 0C C4 5D 
  58 [  17259] RX : 01 03 18 5D C7 45 FB CB 4B 43 61 4A 61 3F D4 C9 5B BF 3B EF F8 3F FD 03 D0 3F 56 89 1B 

 100 [  17360] TX : 02 03 02 88 00 0C C4 6E 
  59 [  17419] RX : 02 03 18 61 44 40 A7 03 15 3E 76 10 EE BF 8A EB CB C0 51 D8 C3 40 6A 80 8B 
================================================================
HEX PORT_LOGGING started on Mon Dec 17 15:44:45 2012
 for FieldServer with IP 10.10.11.2
     [       ] RX : 05 03 18 8B B3 44 29 A6 B9 3C B3 42 9A 40 4C C1 42 C0 09 63 B0 41 55 0C 3C 3E 75 EF 2C 

 101 [    101] TX : 05 03 02 AC 00 0C 85 D2 
  59 [    160] RX : 05 03 18 09 3D 41 BF FC 73 40 70 29 1B 3E 27 74 BD BD A8 0D DE 3E 62 4D FE 3F 3D F3 DF 

 100 [    260] TX : 05 03 02 B8 00 0C C5 D6 
  60 [    320] RX : 05 03 18 A5 65 44 4E DD 30 37 F4 9F 7A 41 0D 8D A0 C0 89 1A EB 41 1F DF 05 3F 63 E3 D0 

 100 [    420] TX : 05 03 02 C4 00 0C 04 0E 
 520 [    940] RX : 05 03 18 9D E3 42 10 A9 2F 41 1C F2 F3 3E A5 9E 36 3D 55 D8 8E 3E B7 14 40 3F 67 19 DC 

 100 [   1041] TX : 05 03 01 62 00 02 65 AD 
  39 [   1080] RX : 05 03 04 E5 0F 42 6F C8 70 

 101 [   1181] TX : 05 03 01 6A 00 06 E5 AC 
  49 [   1230] RX : 05 03 0C 48 2C 42 F3 AD F8 42 F1 61 F3 42 F3 0F 1A 

 100 [   1331] TX : 06 03 02 88 00 0C C5 EA 
 209 [   1540] RX : 06 03 18 B0 67 46 8B ED B1 44 51 2D C1 40 A2 6A 90 BF D6 E0 04 40 C2 0C 4E 3F 55 46 A6 

 112 [   1652] TX : 06 03 02 94 00 0C 04 2C 
  58 [   1710] RX : 06 03 18 89 02 44 1C CE 4A 44 13 0F E5 3E 90 46 1C 3E 4D F5 FB 3E BE 20 C6 3F 41 30 90 

 100 [   1810] TX : 06 03 02 A0 00 0C 45 E2 
  90 [   1900] RX : 06 03 18 5F 6D 46 2F 30 D6 43 5F 36 96 3F AD 53 E5 3E 11 BF D9 3F B2 12 3D 3F 78 3D 96 

 101 [   2001] TX : 06 03 02 AC 00 0C 85 E1 
 499 [   2500] RX : 06 03 18 96 73 44 B6 FE 93 44 A1 A2 D9 3E A7 B8 B2 3E 94 AD 07 3E EA DE 5C 3F 36 7F 19 

 100 [   2600] TX : 06 03 02 B8 00 0C C5 E5 
  55 [   2655] RX : 06 03 18 1C 07 46 76 CC 7A 43 FF 2B 05 40 69 0B 2C BE AF 91 8F 40 79 2D 44 3F 6F 93 49 

 100 [   2756] TX : 06 03 02 C4 00 0C 04 3D 
  54 [   2810] RX : 06 03 18 2D 82 44 B9 44 20 44 D9 D0 4D 3E BD 85 D7 3E B9 B2 0C 3F 0C AF A1 3F 2C 59 CA 

 100 [   2910] TX : 06 03 02 D0 00 0C 44 39 
  60 [   2970] RX : 06 03 18 99 13 46 D5 66 5F 43 77 4C F0 41 72 15 27 C0 E0 E1 BE 41 8D 97 FD 3F 5A C8 DD 

 100 [   3070] TX : 06 03 02 DC 00 0C 84 3A 
 430 [   3500] RX : 06 03 18 5F 5F 44 D9 B0 71 44 AF 2B 9F 3E B5 E4 68 3E 99 24 B4 3E FB AC 83 3F 38 40 6E 

 102 [   3602] TX : 06 03 01 62 00 02 65 9E 
  55 [   3657] RX : 06 03 04 E4 AB 42 6F BB 6F 

 100 [   3757] TX : 06 03 01 6A 00 06 E5 9F 
  53 [   3810] RX : 06 03 0C 60 57 42 F3 47 F8 42 F2 C7 F8 42 F3 3A E3 

 100 [   3911] TX : 07 03 02 88 00 0C C4 3B 
 139 [   4050] RX : 07 03 18 1A 7C 46 A6 69 4F 45 A9 19 7A 40 5A FD 44 3F 6A 67 A8 40 86 B4 CC 3F 4F F6 F1 

 100 [   4151] TX : 07 03 01 62 00 02 64 4F 
  29 [   4180] RX : 07 03 04 E2 CF 42 6F EA F8 

 100 [   4280] TX : 07 03 01 6A 00 06 E4 4E 
  70 [   4350] RX : 07 03 0C 5F 42 42 F3 7C 45 42 F1 EB 84 42 F3 48 5F 

 100 [   4450] TX : 08 03 02 88 00 0C C4 C4 
  60 [   4510] RX : 08 03 18 40 40 43 84 BD 05 3F A1 4A 40 3D 96 95 23 BD 94 7E 30 3E 1E C0 27 3E F2 4F 4E 

 100 [   4610] TX : 08 03 02 94 00 0C 05 02 
  60 [   4670] RX : 08 03 18 66 17 43 65 F2 66 3E B2 85 B8 3D 8A 65 6D BD 90 13 4C 3E 13 1C D0 3E F1 07 3E 

 101 [   4772] TX : 08 03 02 A0 00 0C 44 CC 
  58 [   4830] RX : 08 03 18 C5 A7 43 63 FC 24 3E B3 57 1E 3D A0 F4 1E BD 9D 5C E9 3E 22 CF 97 3E FC CB C9 

 100 [   4931] TX : 08 03 02 AC 00 0C 84 CF 
 509 [   5440] RX : 08 03 18 14 8D 44 51 F1 C2 3E 38 60 A2 3E 82 76 93 BE 54 B7 E1 3E E2 37 61 3F 13 2B C6 

 100 [   5540] TX : 08 03 02 B8 00 0C C4 CB 
  60 [   5600] RX : 08 03 18 C7 93 45 89 91 62 42 C8 EA 2C 3E 15 C2 5A BD A3 EE 56 3E 69 0E C3 3F 24 A0 6C 

 100 [   5700] TX : 08 03 02 C4 00 0C 05 13 
  60 [   5760] RX : 08 03 18 4D A8 44 D8 DE 22 41 D2 10 7D 3E 04 A7 6A BD C9 D9 7B 3E 42 82 C0 3F 2D BE 41 

 100 [   5861] TX : 08 03 01 62 00 02 64 B0 
  39 [   5900] RX : 08 03 04 E2 37 42 6F 94 09 

 101 [   6001] TX : 08 03 01 6A 00 06 E4 B1 
 439 [   6440] RX : 08 03 0C 5C 69 42 F3 6A 3B 42 F2 8C 57 42 F3 38 17 

 101 [   6541] TX : 09 03 02 88 00 0C C5 15 
  59 [   6600] RX : 09 03 18 BB 13 44 30 D2 F2 34 4D 59 84 40 D9 1F D2 C0 71 80 2D 40 FC 5C A1 3F 5C BA 2D 

 100 [   6701] TX : 09 03 02 94 00 0C 04 D3 
  59 [   6760] RX : 09 03 18 AF AE 44 56 72 B1 37 4C 85 A8 40 DB 30 2B C0 71 59 E4 41 02 90 06 3F 57 7D 48 

 101 [   6862] TX : 09 03 02 A0 00 0C 45 1D 
 398 [   7260] RX : 09 03 18 16 19 43 CB 95 F2 3C 80 42 C4 40 51 7C B5 BF C7 35 AC 40 79 F6 70 3F 56 27 BE 

 100 [   7360] TX : 09 03 02 AC 00 0C 85 1E 
  60 [   7420] RX : 09 03 18 DB 29 43 B9 4D 15 3C 99 B8 D7 40 44 2E 44 BF D6 9B 8F 40 6B BF AE 3F 55 14 92 

 100 [   7520] TX : 09 03 01 62 00 02 65 61 
  30 [   7550] RX : 09 03 04 E1 9A 42 6F 15 6C 

 100 [   7650] TX : 09 03 01 6A 00 06 E5 60 
  80 [   7730] RX : 09 03 0C 22 B1 42 F3 79 52 42 F2 42 9F 42 F3 D4 15 

 100 [   7840] TX : 0A 03 02 88 00 0C C5 26 
 410 [   8250] RX : 0A 03 18 22 92 45 A0 A1 4D 42 35 B7 67 3F C4 39 E8 BB 0B BC C1 3F C5 AD A4 3F 7E 2C A8 

 100 [   8351] TX : 0A 03 01 62 00 02 65 52 
  39 [   8390] RX : 0A 03 04 E0 96 42 6F E7 93 

 101 [   8491] TX : 0A 03 01 6A 00 06 E5 53 
  69 [   8560] RX : 0A 03 0C AB 16 42 EA 09 08 42 EF 76 4A 42 F0 78 7A 

 101 [   8661] TX : 0B 03 02 88 00 0C C4 F7 
  59 [   8720] RX : 0B 03 18 2D B8 47 5C 30 A5 39 EB 19 57 41 70 D7 B7 C0 FE 6A 06 41 88 4A 19 3F 61 42 1D 

 100 [   8821] TX : 0B 03 02 94 00 0C 05 31 
  59 [   8880] RX : 0B 03 18 BD 86 44 8E 6C 0D 43 6C 6E 98 3E 9D EC 2F 3D 4E 3E E3 3E A6 6D 8F 3F 72 46 8F 

 100 [   8980] TX : 0B 03 02 A0 00 0C 44 FF 
  60 [   9040] RX : 0B 03 18 9F 71 47 22 50 B4 3E B8 9D 87 41 0F A1 B7 C0 9B F2 79 41 24 E4 8C 3F 5E 07 F6 

 102 [   9142] TX : 0B 03 02 AC 00 0C 84 FC 
 478 [   9620] RX : 0B 03 18 8F 3E 44 66 82 D5 43 99 6A 5C 3E 38 E4 AA 3E 05 E9 1D 3E 68 B2 85 3F 4A BF D8 

 100 [   9720] TX : 0B 03 02 B8 00 0C C4 F8 
  60 [   9780] RX : 0B 03 18 08 F0 47 00 0E 67 3A 10 A9 22 41 2C 78 4A C0 BB B7 0F 41 45 8F 4C 3F 5F F8 F2 

 100 [   9880] TX : 0B 03 02 C4 00 0C 05 20 
  50 [   9930] RX : 0B 03 18 28 1C 44 9E 84 ED 44 04 0B A7 3F A4 86 69 BE 29 EB B4 3F AC DC 59 3F 72 82 F5 

 100 [  10031] TX : 0B 03 02 D0 00 0C 45 24 
  79 [  10110] RX : 0B 03 18 A4 09 43 E5 F1 AA 37 0C 05 5E C0 8D 0F 5D 3F FB C1 34 41 5D CC 75 BE A2 29 6E 

 101 [  10211] TX : 0B 03 01 62 00 02 64 83 
 389 [  10600] RX : 0B 03 04 DE 49 42 6F CB 41 

 100 [  10700] TX : 0B 03 01 6A 00 06 E4 82 
  50 [  10750] RX : 0B 03 0C 73 69 42 F3 95 58 42 F2 B9 9A 42 F3 6C 8C 

 100 [  10851] TX : 0D 03 02 88 00 0C C4 91 
 299 [  11150] RX : 0D 03 18 E5 FD 46 28 AA DB 43 3A 0F C9 40 99 BC D0 BF D3 A5 19 40 A4 FD 5A 3F 6D F1 27 

 100 [  11251] TX : 0D 03 01 62 00 02 64 E5 
  39 [  11290] RX : 0D 03 04 DE 10 42 6F 7D 52 

 100 [  11390] TX : 0D 03 01 6A 00 06 E4 E4 
  70 [  11460] RX : 0D 03 0C 71 3E 42 F3 C0 21 42 F2 1E 12 42 F4 C7 64 

 100 [  11560] TX : 10 03 02 88 00 0C C7 1C 
 160 [  11720] RX : 10 03 18 1C 55 42 98 B8 C7 3D 2F E2 65 3C DA DC 15 BD 8E 17 13 3F 09 5E E2 3D 4C 11 52 

 100 [  11820] TX : 10 03 02 94 00 0C 06 DA 
  60 [  11880] RX : 10 03 18 84 5E 43 38 4F D6 3B B1 74 32 3D 69 FF B5 BD FB 5E D8 3F 11 8E E7 3D CD 1F 91 

 100 [  11981] TX : 10 03 02 A0 00 0C 47 14 
  79 [  12060] RX : 10 03 18 FF 3B 43 46 7E 0E 3D 09 1A D4 3D 80 55 D7 BD CA 28 BE 3F 11 EC 5B 3D E1 0F 1D 

 101 [  12161] TX : 10 03 02 AC 00 0C 87 17 
 479 [  12640] RX : 10 03 18 47 F0 42 A5 51 8F 3D A3 C2 48 3B 97 E3 58 3B 08 6C 5A 3F 0E 63 E7 3C 08 AF EA 

 102 [  12742] TX : 10 03 02 B8 00 0C C7 13 
  59 [  12801] RX : 10 03 18 80 08 43 89 13 FE 3E AC 50 3F 3D 8C D6 7C BD A1 B3 52 3F 07 59 EA 3E 04 15 59 

 100 [  12901] TX : 10 03 02 C4 00 0C 06 CB 
  49 [  12950] RX : 10 03 18 8D B2 43 F4 FC 11 3F 55 1F A3 3D 83 95 44 BD B5 32 32 3F 08 77 2C 3D F6 1C 51 

 100 [  13060] TX : 10 03 01 62 00 02 67 68 
 530 [  13590] RX : 10 03 04 DE 0D 42 6F 20 55 

 117 [  13707] TX : 10 03 01 6A 00 06 E7 69 
  53 [  13760] RX : 10 03 0C D1 09 42 F3 76 22 42 F1 D7 E2 42 F3 FE EB 

 101 [  13861] TX : 11 03 02 88 00 0C C6 CD 
 349 [  14210] RX : 11 03 18 10 AF 46 CF 99 60 45 B8 97 7C 40 19 20 16 3F AF 67 DA 40 3F 6C C4 3F 4D 91 CA 

 100 [  14311] TX : 11 03 01 62 00 02 66 B9 
  39 [  14350] RX : 11 03 04 DD C5 42 6F B1 2F 

 101 [  14451] TX : 11 03 01 6A 00 06 E6 B8 
  69 [  14520] RX : 11 03 0C 8F A0 42 F3 DE 71 42 F2 0B 5A 42 F4 EC CE 

 100 [  14620] TX : 12 03 02 88 00 0C C6 FE 
  88 [  14708] RX : 12 03 18 C5 E1 46 34 E1 FA 42 6F 72 28 40 77 05 0E BD 0A A1 B7 40 78 C7 72 3F 7E DD B9 

 100 [  14808] TX : 12 03 01 62 00 02 66 8A 
  32 [  14840] RX : 12 03 04 DB B5 42 6F 83 7C 

 101 [  14941] TX : 12 03 01 6A 00 06 E6 8B 
  99 [  15040] RX : 12 03 0C A5 21 42 F0 1D E4 42 EF E0 5F 42 EE 4E C6 

 101 [  15141] TX : 32 03 12 16 00 06 24 B7 
  89 [  15230] RX : 32 03 0C 42 F3 C6 75 42 F4 EC 1C 42 F5 8A BC 3E B8 

 100 [  15331] TX : 32 03 12 2A 00 06 E4 BB 
  99 [  15430] RX : 32 03 0C 44 F0 53 9E 44 4C 43 32 45 16 A7 43 70 87 

 101 [  15531] TX : 32 03 12 34 00 02 85 7E 
 137 [  15668] RX : 32 03 04 42 6F D5 07 C2 07 

 100 [  15768] TX : 32 03 12 52 00 02 65 61 
  52 [  15820] RX : 32 03 04 3F 42 DD B2 8C 15 

 101 [  15921] TX : 32 03 18 A0 00 04 47 48 
  99 [  16020] RX : 32 03 08 03 00 00 00 00 00 08 19 E3 8C 

 101 [  16121] TX : 33 03 03 ED 00 06 51 AB 
  39 [  16160] RX : 33 03 0C 44 19 6B AD 44 19 A9 A8 44 19 8A C3 6F E0 

 100 [  16260] TX : 33 03 03 F9 00 0A 11 AA 
  50 [  16310] RX : 33 03 14 48 C5 7F 2A 46 E3 24 70 48 CC EE 95 3F 77 5D 32 42 6F CF 0B 7B 35 

 100 [  16411] TX : 33 03 05 DB 00 14 31 20 
  69 [  16480] RX : 33 03 28 05 3C 41 FA 00 00 00 00 05 3C 41 FA 05 3C 41 FA 00 A8 19 5A FF FF F8 A9 00 A8 12 03 00 A8 20 B1 05 5E C2 D8 02 74 33 01 0D 19 

 100 [  16581] TX : 34 03 03 ED 00 06 50 1C 
  39 [  16620] RX : 34 03 0C 44 17 A4 F7 44 18 7F F5 44 18 12 EC 3E 82 

 100 [  16720] TX : 34 03 03 F9 00 0A 10 1D 
  50 [  16770] RX : 34 03 14 49 52 EB 83 C5 E9 46 C0 49 52 EB 83 3F 7C 16 46 42 6F CD 3E CA 6C 

 101 [  16872] TX : 34 03 05 DB 00 14 30 97 
  68 [  16940] RX : 34 03 28 04 AB 0A 65 FF FF F8 6F 04 AB 02 D3 04 AB 11 F7 00 B4 66 64 FF BB A3 64 00 70 09 C7 00 F8 C3 00 04 E7 40 D9 02 76 06 2E 96 CB 

 101 [  17041] TX : 35 03 03 ED 00 06 51 CD 
  39 [  17080] RX : 35 03 0C 44 17 3B 85 44 18 D1 57 44 18 08 25 9E 0C 

 100 [  17180] TX : 35 03 03 F9 00 0A 11 CC 
  50 [  17230] RX : 35 03 14 48 18 2C FE C7 5A 5D F4 48 22 21 35 3F 70 48 69 42 6F D5 D8 5D 06 

 100 [  17330] TX : 35 03 05 DB 00 14 31 46 
  70 [  17400] RX : 35 03 28 02 5F 3F 52 00 00 00 00 02 5F 3F 52 02 5F 3F 52 00 09 8E 69 FE CA A3 F2 FE D4 32 5C 01 3E EA 77 02 B1 75 52 01 91 F0 3A 75 2A 

 100 [  17501] TX : 37 03 03 ED 00 06 50 2F 
  39 [  17540] RX : 37 03 0C 44 17 C0 34 44 18 A9 35 44 18 35 4E F2 B3 

 100 [  17640] TX : 37 03 03 F9 00 0A 10 2E 
  50 [  17690] RX : 37 03 14 48 4C 10 A1 46 91 D7 00 48 5B 99 BF 3F 6E 80 25 42 6F CE F6 A7 08 

 102 [  17792] TX : 37 03 05 DB 00 14 30 A4 
  28 [  17820] RX : 37 03 28 04 CA 50 CC 00 00 00 00 04 CA 50 CC 04 CA 50 CC 00 7B EA 9E FF FF F1 B6 00 7B DC 53 00 7B F8 E9 05 24 08 1F 02 74 7A 23 6B 08 

 100 [  17961] TX : 70 03 00 40 00 01 8F 3F 
  29 [  17990] RX : 70 03 02 49 01 32 1F 

 100 [  18090] TX : 70 03 00 48 00 01 0E FD 
  30 [  18120] RX : 70 03 02 80 50 A5 B3 

 100 [  18220] TX : 70 03 00 4A 00 01 AF 3D 
  30 [  18250] RX : 70 03 02 40 00 F5 8F 

 100 [  18350] TX : 70 03 00 4C 00 01 4F 3C 
  30 [  18380] RX : 70 03 02 04 10 C7 43 

 101 [  18481] TX : 01 03 02 88 00 0C C4 5D 
  59 [  18540] RX : 01 03 18 83 F9 45 FB F0 D6 43 61 93 AF 3F DD E9 9F BF 47 9E 39 40 04 DC 70 3F 55 EF F4 

 101 [  18641] TX : 01 03 02 94 00 0C 05 9B 
 429 [  19070] RX : 01 03 18 91 EA 46 43 C3 22 43 B6 BD 64 40 3C 3B 95 BF A1 47 5C 40 60 6F 3F 3F 57 CD B5 

 100 [  19170] TX : 01 03 02 A0 00 0C 44 55 
  50 [  19220] RX : 01 03 18 F0 8A 46 17 83 EA 41 9C FE 60 40 25 C9 58 BF 9B A5 2A 40 42 51 2F 3F 5A 6E 22 

 100 [  19321] TX : 01 03 02 AC 00 0C 84 56 
  59 [  19380] RX : 01 03 18 53 25 46 33 43 BE 41 AC 2D 12 3F D1 3A 61 BF 34 B4 3C 3F F4 D4 FD 3F 5A CC 9E 

 100 [  19481] TX : 01 03 02 B8 00 0C C4 52 
  59 [  19540] RX : 01 03 18 1A 9C 43 5C 8B 7D 3E 19 D6 6C 3D 8D 52 B9 BD 87 15 AC 3E 06 66 AF 3F 07 7D 8B 

 101 [  19641] TX : 01 03 01 62 00 02 64 29 
 359 [  20000] RX : 01 03 04 DE E2 42 6F 10 A1 

 100 [  20100] TX : 01 03 01 6A 00 06 E4 28 
  50 [  20150] RX : 01 03 0C 7C F9 42 F2 3C EC 42 F2 C9 6C 42 F2 07 26 

 100 [  20250] TX : 02 03 02 88 00 0C C4 6E 
  60 [  20310] RX : 02 03 18 61 44 40 A7 03 15 3E 76 2C 7C BF 8B CF 16 C0 50 1E DE 40 68 7D C5 BE 99 07 A5 

 101 [  20411] TX : 02 03 02 94 00 0C 05 A8 
  59 [  20470] RX : 02 03 18 C1 1E 43 71 B4 09 3E 52 AE 13 3D B9 43 2B BD 8D B2 1F 3E 25 70 13 3F 0F 3F 2A 

 100 [  20570] TX : 02 03 02 A0 00 0C 44 66 
 750 [  21320] RX : 02 03 18 ED 0F 43 8C D2 88 3E E9 B5 D4 3D AC 86 F6 BD 96 19 55 3E 24 B7 8B 3F 06 20 89 

 100 [  21420] TX : 02 03 02 AC 00 0C 84 65 
  60 [  21480] RX : 02 03 18 67 3D 43 68 3C 46 3D E3 64 79 3D 43 9B D7 BD A9 D3 01 3D FA 6C A6 3E C7 4D FF 

 101 [  21582] TX : 02 03 02 B8 00 0C C4 61 
 1058 [  22640] RX : 02 03 18 1B 4B 42 07 AC 96 40 38 2B 57 3E A9 E2 D3 BD F7 63 E9 3E D7 10 84 3F 49 07 91 

 106 [  22747] TX : 02 03 02 C4 00 0C 05 B9 
 553 [  23300] RX : 02 03 18 99 4B 44 CB AD 87 44 22 09 5E 3F 4C 77 5A BD F3 90 47 3F 65 88 88 3F 63 82 A2 

 100 [  23401] TX : 02 03 02 D0 00 0C 45 BD 
  59 [  23460] RX : 02 03 18 B9 56 43 0A AA 85 3F F9 70 F7 3E 1D 84 8E C0 19 4E 59 40 1F 00 DC 3D 7D EA 5D 

 100 [  23560] TX : 02 03 01 62 00 02 64 1A 
 430 [  23990] RX : 02 03 04 E0 BA 42 6F AF 9A 

 101 [  24091] TX : 02 03 01 6A 00 06 E4 1B 
  49 [  24140] RX : 02 03 0C A9 51 42 F3 79 BC 42 F2 00 B5 42 F4 55 08 

 101 [  24241] TX : 03 03 02 88 00 0C C5 BF 
  59 [  24300] RX : 03 03 18 B8 8C 44 B3 03 C3 44 1D 48 CC 3F 0C B1 BD 3E 4C 4A EF 3F 1B 42 3D 3F 67 3E 8A 

 100 [  24400] TX : 03 03 02 94 00 0C 04 79 
  40 [  24440] RX : 03 03 18 3F B3 46 5C 3A 5F 38 38 D1 AA 40 AF 81 F3 C0 27 C5 63 40 C3 E8 E3 3F 65 40 27 

 101 [  24561] TX : 03 03 02 A0 00 0C 45 B7 
  59 [  24620] RX : 03 03 18 81 BB 43 91 70 DB 3E AE 09 88 40 85 F3 FE C0 14 17 E9 40 99 76 63 3F 5E 4D 3A 

 100 [  24720] TX : 03 03 02 AC 00 0C 85 B4 
 420 [  25140] RX : 03 03 18 36 DF 43 3E C6 A9 3F 22 78 36 40 AF BD 90 C0 46 9E E6 40 CA B2 31 3F 5D 22 4E 

 100 [  25241] TX : 03 03 02 B8 00 0C C5 B0 
  59 [  25300] RX : 03 03 18 58 A4 46 2F DD 9E 41 56 74 BD 40 F0 41 88 C0 65 E7 23 41 06 26 ED 3F 64 34 E8 

 101 [  25402] TX : 03 03 01 62 00 02 65 CB 
  28 [  25430] RX : 03 03 04 E1 11 42 6F CF 46 

 101 [  25531] TX : 03 03 01 6A 00 06 E5 CA 
  49 [  25580] RX : 03 03 0C 73 C6 42 F3 7D 57 42 F3 BA 2D 42 F3 2B D0 

 100 [  25680] TX : 04 03 02 88 00 0C C4 08 
 130 [  25810] RX : 04 03 18 6E A4 46 21 9E FF 3F 3D 97 3B 40 14 89 9D BF 8D 49 B2 40 2B 13 E9 3F 5E 59 58 

 100 [  25910] TX : 04 03 02 94 00 0C 05 CE 
  60 [  25970] RX : 04 03 18 B8 68 46 4D 68 4E 40 4F 16 ED 40 57 AC 7A BF DB 5C 92 40 77 99 D7 3F 5E ED 11 

 100 [  26070] TX : 04 03 02 A0 00 0C 44 00 
  60 [  26130] RX : 04 03 18 C5 60 46 26 0B C0 40 50 24 81 40 31 B4 47 BF AD C5 26 40 4B 8C 21 3F 5E 13 95 

 100 [  26230] TX : 04 03 02 AC 00 0C 84 03 
  60 [  26290] RX : 04 03 18 4E 88 46 EE CF 53 40 3B 8B C1 41 1F 14 C4 C0 8C 39 37 41 39 82 BA 3F 5C CA B2 

 100 [  26390] TX : 04 03 02 B8 00 0C C4 07 
 420 [  26810] RX : 04 03 18 AD 87 46 50 21 2A 42 15 61 C3 40 37 42 FE BF 99 2E E0 40 50 80 94 3F 61 E1 A7 

 100 [  26910] TX : 04 03 02 C4 00 0C 05 DF 
  60 [  26970] RX : 04 03 18 DF 2E 46 96 2D E6 41 AE FB AF 40 A9 2D 58 C0 3C 44 8C 40 C6 7A B8 3F 5B 23 F2 

 100 [  27071] TX : 04 03 01 62 00 02 64 7C 
  29 [  27100] RX : 04 03 04 E2 7B 42 6F 99 DE 

 101 [  27201] TX : 04 03 01 6A 00 06 E4 7D 
  79 [  27280] RX : 04 03 0C 3E B1 42 F2 40 11 42 F2 97 5A 42 F2 9D 24 

 100 [  27380] TX : 05 03 02 88 00 0C C5 D9 
  80 [  27460] RX : 05 03 18 02 B4 44 C0 B6 46 34 F3 96 E7 41 84 DD 78 C1 06 5F 53 41 95 3C A1 3F 63 42 A3 

 100 [  27560] TX : 05 03 02 94 00 0C 04 1F 
 380 [  27940] RX : 05 03 18 47 6E 41 C0 24 C6 40 BC E1 DA 3E 35 07 4C BC 6D 45 41 3E 55 52 AD 3F 5A F3 D9 

 100 [  28040] TX : 05 03 02 A0 00 0C 45 D1 
  60 [  28100] RX : 05 03 18 90 76 44 29 A6 B9 3C B3 E3 83 40 49 BC 9F C0 08 F7 22 41 54 AF 60 3E 72 F9 20 

 100 [  28200] TX : 05 03 02 AC 00 0C 85 D2 
  60 [  28260] RX : 05 03 18 0C 2F 41 BF FC 87 40 70 94 7B 3E 26 89 2C BD A6 B3 07 3E 61 F1 9B 3F 3C B0 71 

 100 [  28361] TX : 05 03 02 B8 00 0C C5 D6 
  59 [  28420] RX : 05 03 18 A9 1B 44 4E DD 30 37 F4 80 F4 41 0D BF C6 C0 88 FC AE 41 1E D9 36 3F 63 9C C6 

 101 [  28522] TX : 05 03 02 C4 00 0C 04 0E 
 418 [  28940] RX : 05 03 18 A0 06 42 10 AA 59 41 1C 9D 9C 3E AB 4F C3 3D 1C 13 7A 3E C1 8B AB 3F 63 66 80 

 100 [  29041] TX : 05 03 01 62 00 02 65 AD 
  29 [  29070] RX : 05 03 04 E4 71 42 6F A9 94 

 101 [  29171] TX : 05 03 01 6A 00 06 E5 AC 
  39 [  29210] RX : 05 03 0C CF 31 42 F2 D8 9D 42 F1 2B 08 42 F3 0F A7 

 100 [  29320] TX : 06 03 02 88 00 0C C5 EA 
 180 [  29500] RX : 06 03 18 B0 78 46 8B ED E3 44 51 40 24 40 A2 24 41 BF D6 CD 55 40 C2 38 E6 3F 55 A3 1B 

 100 [  29601] TX : 06 03 02 94 00 0C 04 2C 
  59 [  29660] RX : 06 03 18 89 20 44 1C CE 61 44 13 06 40 3E 90 65 94 3E 4E 61 A3 3E BF A7 3C 3F 40 8A 09 

 100 [  29760] TX : 06 03 02 A0 00 0C 45 E2 
  60 [  29820] RX : 06 03 18 5F 7B 46 2F 31 38 43 5F F6 09 3F AA 01 79 3E 1E A7 12 3F B0 C0 81 3F 77 3E 1A 

 100 [  29921] TX : 06 03 02 AC 00 0C 85 E1 
  59 [  29980] RX : 06 03 18 96 85 44 B6 FE A3 44 A1 C6 24 3E A6 54 25 3E 94 A9 56 3E E9 B7 CA 3F 36 08 E2 

 100 [  30080] TX : 06 03 02 B8 00 0C C5 E5 
 420 [  30500] RX : 06 03 18 1C 1F 46 76 CC 81 43 FF B8 2E 40 70 4C A5 BE AA B4 12 40 81 8E DE 3F 6D 68 62 

 101 [  30601] TX : 06 03 02 C4 00 0C 04 3D 
  59 [  30660] RX : 06 03 18 2D 96 44 B9 44 34 44 D9 B1 79 3E BC 70 16 3E BB DF DD 3F 0C 72 DA 3F 2B EF 71 

 101 [  30761] TX : 06 03 02 D0 00 0C 44 39 
  59 [  30820] RX : 06 03 18 99 46 46 D5 66 5F 43 77 22 CA 41 70 36 48 C0 DE DE 67 41 8C 32 E5 3F 5A 18 CD 

 100 [  30920] TX : 06 03 02 DC 00 0C 84 3A 
  60 [  30980] RX : 06 03 18 5F 72 44 D9 B0 82 44 AF 25 AE 3E B3 CD BC 3E 9A 5C 3A 3E FA 2E C8 3F 37 70 D9 

 101 [  31081] TX : 06 03 01 62 00 02 65 9E 
 389 [  31470] RX : 06 03 04 E5 9E 42 6F AA 9D 

 100 [  31570] TX : 06 03 01 6A 00 06 E5 9F 
  50 [  31620] RX : 06 03 0C A6 1A 42 F3 64 CF 42 F2 A5 2C 42 F3 04 89 

 100 [  31721] TX : 07 03 02 88 00 0C C4 3B 
 299 [  32020] RX : 07 03 18 1A 8A 46 A6 69 5E 45 A9 CE C7 40 59 CE 38 3F 6A EE 12 40 85 29 F8 3F 50 A1 A6 

 100 [  32121] TX : 07 03 01 62 00 02 64 4F 
  39 [  32160] RX : 07 03 04 E7 3C 42 6F 1A 07 

 100 [  32261] TX : 07 03 01 6A 00 06 E4 4E 
  68 [  32330] RX : 07 03 0C 8B 7B 42 F3 80 90 42 F1 DB EF 42 F3 5F B2 

 100 [  32430] TX : 08 03 02 88 00 0C C4 C4 
 300 [  32730] RX : 08 03 18 40 59 43 84 BD 05 3F A1 59 D4 3D 94 47 7B BD 91 E9 32 3E 1B 96 33 3E F3 EE 26 

 100 [  32830] TX : 08 03 02 94 00 0C 05 02 
  90 [  32920] RX : 08 03 18 66 37 43 65 F2 66 3E B2 3F 54 3D 91 1C 90 BD 91 F4 BC 3E 15 F6 2B 3E F7 3C 74 

 100 [  33020] TX : 08 03 02 A0 00 0C 44 CC 
 460 [  33480] RX : 08 03 18 C5 C9 43 63 FC 24 3E B3 BF 27 3D 9D 0C 16 BD 9B 6F D1 3E 21 25 FD 3E FA C5 F4 

 101 [  33581] TX : 08 03 02 AC 00 0C 84 CF 
  59 [  33640] RX : 08 03 18 15 82 44 51 F1 C2 3E 38 70 18 40 00 68 58 BF 81 F0 7D 40 4B 39 8E 3F 21 39 EF 

 101 [  33742] TX : 08 03 02 B8 00 0C C4 CB 
  63 [  33805] RX : 08 03 18 C7 96 45 89 91 62 42 C8 F4 C2 3E 16 F1 EF BD 9E 51 46 3E 6B 39 53 3F 24 9F 93 

 101 [  33906] TX : 08 03 02 C4 00 0C 05 13 
  54 [  33960] RX : 08 03 18 4D BE 44 D8 DE 22 41 D2 EE 30 3E FE DE 99 BE 83 2D CA 3F 1F FF 14 3F 4C F9 7D 

 101 [  34061] TX : 08 03 01 62 00 02 64 B0 
 359 [  34420] RX : 08 03 04 E9 E8 42 6F A7 D7 

 101 [  34521] TX : 08 03 01 6A 00 06 E4 B1 
  39 [  34560] RX : 08 03 0C B1 F5 42 F2 A5 50 42 F2 24 16 42 F4 3F 98 

 100 [  34670] TX : 09 03 02 88 00 0C C5 15 
  70 [  34740] RX : 09 03 18 BE 73 44 30 D2 F2 34 4D B6 5A 40 DA C1 D8 C0 70 56 3E 41 01 73 9C 3F 58 30 E8 

 100 [  34841] TX : 09 03 02 94 00 0C 04 D3 
 409 [  35250] RX : 09 03 18 B4 0F 44 56 72 B1 37 4C 28 B7 40 D8 E7 73 C0 6D 55 19 40 FD 6F 69 3F 5A 16 4A 

 101 [  35351] TX : 09 03 02 A0 00 0C 45 1D 
  59 [  35410] RX : 09 03 18 18 DA 43 CB 95 F2 3C 80 22 C4 40 4E 30 44 BF C2 38 F1 40 6E 84 D5 3F 5D 5B AF 

 101 [  35511] TX : 09 03 02 AC 00 0C 85 1E 
  59 [  35570] RX : 09 03 18 DD BC 43 B9 4D 15 3C 99 7B 68 40 43 70 D6 BF D5 A1 D0 40 68 1E 46 3F 57 E0 84 

 100 [  35671] TX : 09 03 01 62 00 02 65 61 
  49 [  35720] RX : 09 03 04 EB E4 42 6F 76 AC 

 102 [  35822] TX : 09 03 01 6A 00 06 E5 60 
 698 [  36520] RX : 09 03 0C 88 6A 42 F3 47 67 42 F2 D9 16 42 F3 DB 7E 

 100 [  36620] TX : 0A 03 02 88 00 0C C5 26 
  60 [  36680] RX : 0A 03 18 22 AA 45 A0 A1 77 42 35 EC 9A 3F C4 C2 6C BB 80 9C 88 3F C6 D3 44 3F 7D 41 51 

 101 [  36781] TX : 0A 03 01 62 00 02 65 52 
  42 [  36823] RX : 0A 03 04 EC 45 42 6F 15 3A 

 100 [  36923] TX : 0A 03 01 6A 00 06 E5 53 
 327 [  37250] RX : 0A 03 0C B6 1B 42 EA 95 7C 42 EF D5 51 42 F0 00 87 

 100 [  37351] TX : 0B 03 02 88 00 0C C4 F7 
 269 [  37620] RX : 0B 03 18 2D DA 47 5C 30 A5 39 EB 8D 09 41 6E D9 9F C0 FC 94 62 41 87 36 F4 3F 61 EA 7A 

 101 [  37721] TX : 0B 03 02 94 00 0C 05 31 
  59 [  37780] RX : 0B 03 18 BD 9F 44 8E 6C 37 43 6C F1 1B 3E 9D 7C 25 3D 49 43 F7 3E A6 2F 1A 3F 73 8C DC 

 100 [  37881] TX : 0B 03 02 A0 00 0C 44 FF 
  59 [  37940] RX : 0B 03 18 9F 81 47 22 50 B4 3E B8 42 28 41 0F 30 B1 C0 9B B6 00 41 24 A8 5E 3F 5E 80 C5 

 101 [  38042] TX : 0B 03 02 AC 00 0C 84 FC 
  68 [  38110] RX : 0B 03 18 8F 52 44 66 82 F2 43 99 BF 64 3E 36 E0 CF 3E 04 EB 14 3E 66 98 E1 3F 4A E1 0A 

 101 [  38211] TX : 0B 03 02 B8 00 0C C4 F8 
 769 [  38980] RX : 0B 03 18 09 02 47 00 0E 67 3A 10 5A E1 41 24 61 65 C0 BA 99 41 41 3D EA 5E 3F 5D 56 C7 

 100 [  39081] TX : 0B 03 02 C4 00 0C 05 20 
 889 [  39970] RX : 0B 03 18 28 7C 44 9E 84 FB 44 04 AF C8 3F 99 60 42 BE 3B 8C 14 3F A2 0B 99 3F 72 00 81 

 102 [  40072] TX : 0B 03 02 D0 00 0C 45 24 
  58 [  40130] RX : 0B 03 18 A8 F5 43 E5 F1 AA 37 0C CE FD C0 87 0E 86 3F ED 31 F6 41 56 50 86 BE A2 0F 3E 

 100 [  40231] TX : 0B 03 01 62 00 02 64 83 
 429 [  40660] RX : 0B 03 04 EF 2F 42 6F 25 A2 

 101 [  40761] TX : 0B 03 01 6A 00 06 E4 82 
  49 [  40810] RX : 0B 03 0C DC 72 42 F3 79 B5 42 F2 47 5F 42 F4 D9 B9 

 100 [  40910] TX : 0D 03 02 88 00 0C C4 91 
 240 [  41150] RX : 0D 03 18 E6 26 46 28 AA DB 43 3A 5A 1E 40 99 DB 21 BF D3 E5 4B 40 A4 14 19 3F 6E 5F 3B 

 100 [  41251] TX : 0D 03 01 62 00 02 64 E5 
  39 [  41290] RX : 0D 03 04 EE 8E 42 6F 13 BC 

 100 [  41390] TX : 0D 03 01 6A 00 06 E4 E4 
  70 [  41460] RX : 0D 03 0C DB 81 42 F3 FF 04 42 F2 6E 27 42 F4 07 33 

 100 [  41560] TX : 10 03 02 88 00 0C C7 1C 
  40 [  41600] RX : 10 03 18 1C 75 42 98 B8 C7 3D 2F F0 EF 3C C9 AF 35 BD 83 AE 7E 3F 0B 0D 81 3D 39 AE 5C 

 101 [  41721] TX : 10 03 02 94 00 0C 06 DA 
  59 [  41780] RX : 10 03 18 84 78 43 38 4F D6 3B B1 6D 28 3D 7D 19 E3 BD FA F1 A2 3F 17 7D 93 3D D5 BD C3 

 100 [  41880] TX : 10 03 02 A0 00 0C 47 14 
  60 [  41940] RX : 10 03 18 FF 64 43 46 7E 0E 3D 09 15 62 3D 84 47 9F BD C8 E3 48 3F 16 18 9F 3D E0 08 4C 

 100 [  42040] TX : 10 03 02 AC 00 0C 87 17 
 500 [  42540] RX : 10 03 18 48 21 42 A5 51 8F 3D A3 3F 18 3B B3 38 C0 3B 8E F7 21 3F 0E 7B B8 3C 20 2C F3 

 100 [  42640] TX : 10 03 02 B8 00 0C C7 13 
  60 [  42700] RX : 10 03 18 80 18 43 89 14 03 3E AC BD 06 3D 89 10 32 BD A3 E2 68 3F 0D 84 F6 3D F8 06 B9 

 100 [  42801] TX : 10 03 02 C4 00 0C 06 CB 
  59 [  42860] RX : 10 03 18 8D C0 43 F4 FC 11 3F 55 BD 2D 3D 87 50 D0 BD B6 B5 BF 3F 0E 7E C0 3D F3 72 9C 

 101 [  42961] TX : 10 03 01 62 00 02 67 68 
  29 [  42990] RX : 10 03 04 ED 6B 42 6F CF 0E 

 100 [  43091] TX : 10 03 01 6A 00 06 E7 69 
 449 [  43540] RX : 10 03 0C 4D 82 42 F3 80 CC 42 F2 9A 18 42 F3 53 A1 

 100 [  43640] TX : 11 03 02 88 00 0C C6 CD 
  60 [  43700] RX : 11 03 18 10 B9 46 CF 99 77 45 B8 F1 1F 40 18 B8 D8 3F B0 0E 6F 40 3F ED FF 3F 4C D0 E4 

 102 [  43802] TX : 11 03 01 62 00 02 66 B9 
 388 [  44190] RX : 11 03 04 ED 27 42 6F 1E 19 

 100 [  44290] TX : 11 03 01 6A 00 06 E6 B8 
  60 [  44350] RX : 11 03 0C 14 53 42 F4 E2 76 42 F2 6D B2 42 F4 0B DE 

 100 [  44450] TX : 12 03 02 88 00 0C C6 FE 
 230 [  44680] RX : 12 03 18 C6 02 46 34 E2 6C 42 6F BC 3C 40 76 10 9C BD 15 EA 59 40 77 C8 09 3F 7E 93 0B 

 101 [  44781] TX : 12 03 01 62 00 02 66 8A 
  39 [  44820] RX : 12 03 04 EA 69 42 6F 4C 7A 

 101 [  44922] TX : 12 03 01 6A 00 06 E6 8B 
 118 [  45040] RX : 12 03 0C EF F2 42 F0 46 91 42 EF ED 1D 42 EE 32 96 

 101 [  45141] TX : 32 03 12 16 00 06 24 B7 
  79 [  45220] RX : 32 03 0C 42 F4 12 D7 42 F5 48 BD 42 F5 F6 7B 55 B8 

 100 [  45320] TX : 32 03 12 2A 00 06 E4 BB 
 100 [  45420] RX : 32 03 0C 44 EE 44 AB 44 AD 8D 45 45 15 BA 4F 27 CF 

 100 [  45520] TX : 32 03 12 34 00 02 85 7E 
 130 [  45650] RX : 32 03 04 42 6F E3 7D 54 44 

 100 [  45750] TX : 32 03 12 52 00 02 65 61 
  60 [  45810] RX : 32 03 04 3F 42 35 23 03 B9 

 100 [  45910] TX : 32 03 18 A0 00 04 47 48 
  30 [  45940] RX : 32 03 08 03 00 00 00 00 00 08 19 E3 8C 

 101 [  46041] TX : 33 03 03 ED 00 06 51 AB 
  39 [  46080] RX : 33 03 0C 44 19 90 13 44 19 D0 D4 44 19 B0 7B 2A D0 

 101 [  46181] TX : 33 03 03 F9 00 0A 11 AA 
  49 [  46230] RX : 33 03 14 48 D6 2C C7 47 06 8F 44 48 D7 BA F0 3F 7E 27 85 42 6F DB DD 8A 7A 

 101 [  46331] TX : 33 03 05 DB 00 14 31 20 
  69 [  46400] RX : 33 03 28 05 3C 43 54 00 00 00 00 05 3C 43 54 05 3C 43 54 00 A8 19 76 FF FF F8 A9 00 A8 12 1F 00 A8 20 CD 05 5E C4 37 02 74 33 A3 57 0F 

 100 [  46501] TX : 34 03 03 ED 00 06 50 1C 
  39 [  46540] RX : 34 03 0C 44 17 C7 70 44 18 A9 D8 44 18 39 2E AA 54 

 100 [  46640] TX : 34 03 03 F9 00 0A 10 1D 
  50 [  46690] RX : 34 03 14 49 59 24 2F 45 A9 8E 40 49 5B C9 9E 3F 80 00 00 42 6F D4 BB AF 73 

 100 [  46790] TX : 34 03 05 DB 00 14 30 97 
  41 [  46831] RX : 34 03 28 04 AB 0D 34 FF FF F8 6F 04 AB 05 A2 04 AB 14 C5 00 B4 66 67 FF BB A3 64 00 70 09 CB 00 F8 C3 04 04 E7 43 B1 02 76 07 9B EB 6B 

 101 [  46975] TX : 35 03 03 ED 00 06 51 CD 
  35 [  47010] RX : 35 03 0C 44 17 5B 9E 44 18 FB 84 44 18 2D 44 7A 22 

 100 [  47110] TX : 35 03 03 F9 00 0A 11 CC 
  50 [  47160] RX : 35 03 14 48 2D 7D 60 C7 39 C6 34 48 36 86 AF 3F 74 CB 38 42 6F DB 2A 28 0A 

 101 [  47261] TX : 35 03 05 DB 00 14 31 46 
  69 [  47330] RX : 35 03 28 02 5F 3F DB 00 00 00 00 02 5F 3F DB 02 5F 3F DB 00 09 8E 69 FE CA A3 C4 FE D4 32 2D 01 3E EA A5 02 B1 75 E3 01 91 F0 93 84 DC 

 100 [  47431] TX : 37 03 03 ED 00 06 50 2F 
  39 [  47470] RX : 37 03 0C 44 17 EA AA 44 18 DC 50 44 18 64 77 89 70 

 100 [  47571] TX : 37 03 03 F9 00 0A 10 2E 
  49 [  47620] RX : 37 03 14 48 4C A0 C0 46 9B 55 00 48 5A 58 24 3F 6E 8E E6 42 6F D9 69 75 70 

 101 [  47721] TX : 37 03 05 DB 00 14 30 A4 
  69 [  47790] RX : 37 03 28 04 CA 51 79 00 00 00 00 04 CA 51 79 04 CA 51 79 00 7B EA AE FF FF F1 B6 00 7B DC 63 00 7B F8 F9 05 24 08 D8 02 74 7A 78 30 10 

 100 [  47891] TX : 70 03 00 40 00 01 8F 3F 
  29 [  47920] RX : 70 03 02 49 01 32 1F 

 100 [  48020] TX : 70 03 00 48 00 01 0E FD 
  30 [  48050] RX : 70 03 02 80 50 A5 B3 

 100 [  48150] TX : 70 03 00 4A 00 01 AF 3D 
  30 [  48180] RX : 70 03 02 40 00 F5 8F 

 100 [  48280] TX : 70 03 00 4C 00 01 4F 3C 
  30 [  48310] RX : 70 03 02 04 10 C7 43 

 100 [  48410] TX : 01 03 02 88 00 0C C4 5D 
  60 [  48470] RX : 01 03 18 84 1C 45 FB F0 FA 43 61 7B 5F 3F DE E1 4D BF 46 E1 61 40 04 4F 89 3F 56 0F 43 

 100 [  48571] TX : 01 03 02 94 00 0C 05 9B 
 489 [  49060] RX : 01 03 18 92 03 46 43 C3 45 43 B6 27 0E 40 3C 47 78 BF A1 CB 60 40 5F 3A A0 3F 57 92 75 

 100 [  49161] TX : 01 03 02 A0 00 0C 44 55 
  59 [  49220] RX : 01 03 18 F0 9C 46 17 83 EA 41 9C 86 EB 40 26 11 5D BF 9C 26 60 40 43 73 C1 3F 5A 04 83 

 100 [  49321] TX : 01 03 02 AC 00 0C 84 56 
  59 [  49380] RX : 01 03 18 53 34 46 33 43 BE 41 AC F8 D9 3F D0 45 A4 BF 35 87 88 3F F4 C6 52 3F 5A EC 70 

 101 [  49481] TX : 01 03 02 B8 00 0C C4 52 
  60 [  49541] RX : 01 03 18 1A C9 43 5C 8B BB 3E 19 54 11 3D 8E 48 4B BD 8E 59 53 3E 08 9D 03 3F 05 3E 02 

 100 [  49641] TX : 01 03 01 62 00 02 64 29 
 369 [  50010] RX : 01 03 04 E9 95 42 6F AE CF 

 100 [  50110] TX : 01 03 01 6A 00 06 E4 28 
  50 [  50160] RX : 01 03 0C 36 EA 42 F3 4E A1 42 F2 55 BB 42 F3 0C 44 

 101 [  50262] TX : 02 03 02 88 00 0C C4 6E 
  58 [  50320] RX : 02 03 18 61 44 40 A7 03 15 3E 76 8D 45 BF 89 EC 35 C0 51 F7 44 40 68 26 EC BE 97 DB B1 

 100 [  50421] TX : 02 03 02 94 00 0C 05 A8 
  59 [  50480] RX : 02 03 18 C1 45 43 71 B4 09 3E 52 B3 F8 3D BD B9 04 BD 94 33 F7 3E 29 82 0D 3F 0F 1D 84 

 100 [  50581] TX : 02 03 02 A0 00 0C 44 66 
 379 [  50960] RX : 02 03 18 ED 2A 43 8C D3 47 3E E9 FA 73 3D AD C5 00 BD 99 22 87 3E 26 0B 05 3F 06 57 44 

 101 [  51061] TX : 02 03 02 AC 00 0C 84 65 
  59 [  51120] RX : 02 03 18 67 6D 43 68 3C 5C 3D E3 BD 9E 3D 8F D4 26 BD 9A 60 75 3E 16 B3 E9 3E F4 31 26 

 100 [  51221] TX : 02 03 02 B8 00 0C C4 61 
  19 [  51240] RX : 02 03 18 1D 6F 42 07 AF FF 40 38 2B 57 3E A9 E2 D3 BD F7 63 E9 3E D7 10 84 3F 49 61 62 

 101 [  51382] TX : 02 03 02 C4 00 0C 05 B9 
  58 [  51440] RX : 02 03 18 99 89 44 CB AD 8E 44 22 B5 6E 3F 75 96 2E BE 9D 63 78 3F 93 62 EC 3F 55 ED B8 

 100 [  51540] TX : 02 03 02 D0 00 0C 45 BD 
 421 [  51961] RX : 02 03 18 B9 B3 43 0A AA 85 3F F9 AD 19 3E 14 96 DE C0 19 B1 E3 40 1F 56 1D 3D 6E 55 BD 

 100 [  52061] TX : 02 03 01 62 00 02 64 1A 
  39 [  52100] RX : 02 03 04 EB 68 42 6F 0D 87 

 101 [  52201] TX : 02 03 01 6A 00 06 E4 1B 
  49 [  52250] RX : 02 03 0C 72 57 42 F3 88 12 42 F2 DE DD 42 F3 17 91 

 100 [  52350] TX : 03 03 02 88 00 0C C5 BF 
  60 [  52410] RX : 03 03 18 B8 AB 44 B3 03 DA 44 1D 60 6F 3F 0C 0D 30 3E 4C A8 93 3F 1B DD FE 3F 66 C9 42 

 101 [  52511] TX : 03 03 02 94 00 0C 04 79 
  59 [  52570] RX : 03 03 18 3F D9 46 5C 3A 5F 38 38 6A 71 40 AF 46 21 C0 28 60 DF 40 C3 D7 EB 3F 65 97 51 

 100 [  52671] TX : 03 03 02 A0 00 0C 45 B7 
 459 [  53130] RX : 03 03 18 87 10 43 91 70 DB 3E AE 75 BD 40 85 EB 23 C0 15 93 A7 40 99 77 83 3F 5E 8B 0D 

 100 [  53231] TX : 03 03 02 AC 00 0C 85 B4 
  59 [  53290] RX : 03 03 18 40 64 43 3E C6 A9 3F 22 A9 19 40 AF A1 7A C0 47 DA 39 40 CA AF 0D 3F 5D 37 F2 

 100 [  53391] TX : 03 03 02 B8 00 0C C5 B0 
  59 [  53450] RX : 03 03 18 58 DA 46 2F DD 9E 41 56 93 69 40 F3 49 34 C0 65 04 20 41 09 8C 38 3F 63 91 37 

 100 [  53550] TX : 03 03 01 62 00 02 65 CB 
  30 [  53580] RX : 03 03 04 EB 3C 42 6F 5C 97 

 100 [  53680] TX : 03 03 01 6A 00 06 E5 CA 
 450 [  54130] RX : 03 03 0C 2A F9 42 F4 FF 16 42 F3 67 C5 42 F4 3D 0F 

 100 [  54230] TX : 04 03 02 88 00 0C C4 08 
  60 [  54290] RX : 04 03 18 6E B5 46 21 9E FF 3F 3D D3 F6 40 15 4E D0 BF 90 B1 CD 40 2C 1A 59 3F 5E 5F 06 

 102 [  54392] TX : 04 03 02 94 00 0C 05 CE 
 428 [  54820] RX : 04 03 18 B8 8A 46 4D 68 4E 40 4F 7F 2E 40 56 1F 23 BF DD FE 57 40 76 51 7C 3F 5E F3 60 

 100 [  54921] TX : 04 03 02 A0 00 0C 44 00 
  59 [  54980] RX : 04 03 18 C5 77 46 26 0B C0 40 50 37 3A 40 32 16 59 BF AE A9 30 40 4C EB CC 3F 5E 4E E1 

 100 [  55080] TX : 04 03 02 AC 00 0C 84 03 
  60 [  55140] RX : 04 03 18 4E AB 46 EE CF 53 40 3B F3 36 41 1D 5C 91 C0 84 15 8E 41 36 11 9A 3F 5E D2 4D 

 100 [  55240] TX : 04 03 02 B8 00 0C C4 07 
  60 [  55300] RX : 04 03 18 AD 9A 46 50 21 46 42 15 F6 B3 40 35 40 6A BF 96 3B AA 40 4F C8 BB 3F 60 68 9A 

 101 [  55401] TX : 04 03 02 C4 00 0C 05 DF 
 449 [  55850] RX : 04 03 18 DF 40 46 96 2D E6 41 AE FF 97 40 A8 FA 5C C0 3B 5B FE 40 C5 36 57 3F 5B 0D FF 

 101 [  55951] TX : 04 03 01 62 00 02 64 7C 
  39 [  55990] RX : 04 03 04 EA DE 42 6F 8B 9D 

 100 [  56090] TX : 04 03 01 6A 00 06 E4 7D 
  50 [  56140] RX : 04 03 0C D7 F2 42 F2 97 55 42 F2 8D B4 42 F3 B7 10 

 100 [  56241] TX : 05 03 02 88 00 0C C5 D9 
  49 [  56290] RX : 05 03 18 06 E2 44 C0 B6 46 34 F3 C9 D8 41 84 FE 97 C1 06 8C 28 41 95 4F B6 3F 63 AA B9 

 100 [  56391] TX : 05 03 02 94 00 0C 04 1F 
  89 [  56480] RX : 05 03 18 4B 1D 41 C0 27 3D 40 BC 5A A8 3E 39 E1 30 BC 78 3C 18 3E 59 6E 2A 3F 5A 5E 88 

 100 [  56581] TX : 05 03 02 A0 00 0C 45 D1 
 368 [  56950] RX : 05 03 18 93 A0 44 29 A6 B9 3C B3 17 8D 40 49 0D 9B C0 07 97 01 41 54 27 81 3E 72 6B CE 

 102 [  57052] TX : 05 03 02 AC 00 0C 85 D2 
  59 [  57111] RX : 05 03 18 0E 72 41 BF FC C4 40 70 3E 14 3E 28 EB 65 BD A6 12 F3 3E 63 AC 97 3F 3D E9 D5 

 100 [  57211] TX : 05 03 02 B8 00 0C C5 D6 
  59 [  57270] RX : 05 03 18 AC F4 44 4E DD 30 37 F4 91 61 41 0D FF 2E C0 88 12 7C 41 1F D4 6A 3F 63 13 62 

 100 [  57370] TX : 05 03 02 C4 00 0C 04 0E 
  60 [  57430] RX : 05 03 18 A2 54 42 10 AB A8 41 1C 74 67 3E A9 29 7B 3D 2A 90 C5 3E BE A3 EF 3F 63 2E 01 

 100 [  57531] TX : 05 03 01 62 00 02 65 AD 
 399 [  57930] RX : 05 03 04 EB 3C 42 6F 3A 97 

 100 [  58030] TX : 05 03 01 6A 00 06 E5 AC 
  50 [  58080] RX : 05 03 0C 5C 1B 42 F3 55 EB 42 F2 9C 3E 42 F3 12 2E 

 100 [  58180] TX : 06 03 02 88 00 0C C5 EA 
 330 [  58510] RX : 06 03 18 B0 8E 46 8B EE 29 44 51 AC 68 40 A2 83 B3 BF D8 82 76 40 C3 01 20 3F 55 55 90 

 100 [  58611] TX : 06 03 02 94 00 0C 04 2C 
  59 [  58670] RX : 06 03 18 89 4E 44 1C CE 81 44 13 6B A4 3E 8F D3 11 3E 51 6B 38 3E C0 CF A2 3F 3E 41 6A 

 100 [  58771] TX : 06 03 02 A0 00 0C 45 E2 
  59 [  58830] RX : 06 03 18 5F 85 46 2F 31 7C 43 5F 07 EB 3F AD 90 D6 3E 1F CA 62 3F B2 C0 CC 3F 77 AF 36 

 100 [  58931] TX : 06 03 02 AC 00 0C 85 E1 
  58 [  58990] RX : 06 03 18 96 97 44 B6 FE B4 44 A1 3A 44 3E A7 CD B9 3E 94 47 CF 3E EA BB 16 3F 36 13 60 

 101 [  59091] TX : 06 03 02 B8 00 0C C5 E5 
 419 [  59510] RX : 06 03 18 1C 3B 46 76 CC 83 43 FF B8 2E 40 70 4C A5 BE AA B4 12 40 81 8E DE 3F 6D B9 30 

 101 [  59612] TX : 06 03 02 C4 00 0C 04 3D 
  58 [  59670] RX : 06 03 18 2D AB 44 B9 44 49 44 D9 D7 47 3E BC DF CD 3E BD 95 15 3F 0D B9 96 3F 2A BE B3 

 101 [  59771] TX : 06 03 02 D0 00 0C 44 39 
  59 [  59830] RX : 06 03 18 99 7D 46 D5 66 5F 43 77 22 CA 41 70 36 48 C0 DE DE 67 41 8C 32 E5 3F 5A 7C 9B 

 103 [  59933] TX : 06 03 02 DC 00 0C 84 3A 
  58 [  59991] RX : 06 03 18 5F 86 44 D9 B0 92 44 AF E5 2A 3E B3 14 FF 3E 9B FC 4E 3E FA 7D 42 3F 37 DE FC 

 100 [  60091] TX : 06 03 01 62 00 02 65 9E 
 779 [  60870] RX : 06 03 04 E7 91 42 6F 9B 26 

 101 [  60971] TX : 06 03 01 6A 00 06 E5 9F 
 559 [  61530] RX : 06 03 0C 97 2B 42 F3 CE 8B 42 F2 09 19 42 F4 BC 69 

 100 [  61631] TX : 07 03 02 88 00 0C C4 3B 
 419 [  62050] RX : 07 03 18 1A 98 46 A6 69 6D 45 A9 09 E1 40 5B E3 81 3F 67 F0 39 40 86 C6 A1 3F 4F FB 86 

 100 [  62150] TX : 07 03 01 62 00 02 64 4F 
  30 [  62180] RX : 07 03 04 E6 30 42 6F DB F8 

 101 [  62281] TX : 07 03 01 6A 00 06 E4 4E 
  69 [  62350] RX : 07 03 0C D5 F0 42 F3 70 71 42 F1 7B DF 42 F4 67 C4 

 100 [  62450] TX : 08 03 02 88 00 0C C4 C4 
  50 [  62500] RX : 08 03 18 40 6B 43 84 BD 05 3F A1 C0 54 3D 92 F7 70 BD 8F EB 39 3E 19 14 2D 3E F4 AE 09 

 100 [  62601] TX : 08 03 02 94 00 0C 05 02 
  59 [  62660] RX : 08 03 18 66 60 43 65 F2 66 3E B2 55 7A 3D 8E BC D8 BD 92 18 27 3E 13 B7 0B 3E F7 D8 E3 

 100 [  62761] TX : 08 03 02 A0 00 0C 44 CC 
  60 [  62821] RX : 08 03 18 C5 FF 43 63 FC 3A 3E B3 75 0E 3D 9E 3F 08 BD 9A 4A DA 3E 20 11 B2 3E FD BF 95 

 101 [  62922] TX : 08 03 02 AC 00 0C 84 CF 
 508 [  63430] RX : 08 03 18 16 17 44 51 F1 C2 3E 38 88 0D 3F 7D CD EA BF 12 0A 47 40 08 8C 24 3E EE BE 04 

 100 [  63531] TX : 08 03 02 B8 00 0C C4 CB 
  59 [  63590] RX : 08 03 18 C7 98 45 89 91 62 42 C8 B8 5C 3E 26 FB 70 BD AC 01 E9 3E 85 71 88 3F 20 74 C4 

 100 [  63691] TX : 08 03 02 C4 00 0C 05 13 
  59 [  63750] RX : 08 03 18 4D C7 44 D8 DE 22 41 D2 BA 24 3E 81 1F 6F BE 1A 96 EE 3E C5 13 8E 3F 28 F7 62 

 100 [  63850] TX : 08 03 01 62 00 02 64 B0 
  50 [  63900] RX : 08 03 04 E3 DE 42 6F 44 01 

 101 [  64001] TX : 08 03 01 6A 00 06 E4 B1 
 429 [  64430] RX : 08 03 0C 05 72 42 F4 7F A6 42 F2 52 62 42 F4 55 01 

 101 [  64531] TX : 09 03 02 88 00 0C C5 15 
  59 [  64590] RX : 09 03 18 C2 56 44 30 D2 F2 34 4D E7 E1 40 DA B2 DA C0 72 6E 1C 41 02 D3 C5 3F 56 C0 93 

 100 [  64691] TX : 09 03 02 94 00 0C 04 D3 
  59 [  64750] RX : 09 03 18 B6 F8 44 56 72 B1 37 4C 46 9A 40 DA 0D 16 C0 6F DF 0F 40 FD 1B 23 3F 5C AD D4 

 101 [  64851] TX : 09 03 02 A0 00 0C 45 1D 
 389 [  65240] RX : 09 03 18 1C 93 43 CB 95 F2 3C 80 33 94 40 52 34 60 BF C7 F9 3E 40 73 90 28 3F 5C 3F 72 

 100 [  65340] TX : 09 03 02 AC 00 0C 85 1E 
  50 [  65390] RX : 09 03 18 E1 8F 43 B9 4D 15 3C 99 CE EC 40 3F CE 95 BF D5 4E CD 40 6C CA CE 3F 4F 84 B8 

 101 [  65491] TX : 09 03 01 62 00 02 65 61 
  29 [  65520] RX : 09 03 04 E1 D5 42 6F 24 BB 

 100 [  65620] TX : 09 03 01 6A 00 06 E5 60 
  50 [  65670] RX : 09 03 0C 77 A6 42 F3 DC 03 42 F2 DC 98 42 F3 42 C6 

 102 [  65772] TX : 0A 03 02 88 00 0C C5 26 
  58 [  65830] RX : 0A 03 18 22 C4 45 A0 A1 A2 42 35 7E 1D 3F C4 98 60 BB 19 18 F2 3F C6 ED 16 3F 7D 62 95 

 100 [  65930] TX : 0A 03 01 62 00 02 65 52 
 300 [  66230] RX : 0A 03 04 E4 6A 42 6F 26 93 

 100 [  66330] TX : 0A 03 01 6A 00 06 E5 53 
  70 [  66400] RX : 0A 03 0C 2A 18 42 EB 79 E4 42 EF 13 E8 42 F1 EA BB 

 100 [  66500] TX : 0B 03 02 88 00 0C C4 F7 
 120 [  66620] RX : 0B 03 18 2D F7 47 5C 30 A5 39 EB 3A E5 41 6E A4 21 C0 FD 7B C5 41 87 12 43 3F 61 D2 63 

 100 [  66720] TX : 0B 03 02 94 00 0C 05 31 
  60 [  66780] RX : 0B 03 18 BD B1 44 8E 6C 55 43 6C B1 AE 3E 9F 36 4C 3D 57 87 48 3E A8 94 8E 3F 72 B8 E7 

 100 [  66881] TX : 0B 03 02 A0 00 0C 44 FF 
  59 [  66940] RX : 0B 03 18 9F 91 47 22 50 B4 3E B8 CC D8 41 0C C7 38 C0 98 A1 A1 41 21 01 AA 3F 5F E5 60 

 101 [  67041] TX : 0B 03 02 AC 00 0C 84 FC 
  59 [  67100] RX : 0B 03 18 8F 6F 44 66 83 1D 43 99 29 42 3E 38 A4 5C 3E 05 7B 5F 3E 68 CA 84 3F 4A 38 B6 

 100 [  67200] TX : 0B 03 02 B8 00 0C C4 F8 
 450 [  67650] RX : 0B 03 18 09 1E 47 00 0E 67 3A 10 EC 2E 41 2C 5D B9 C0 BB D5 28 41 45 C4 0C 3F 5F 16 96 

 101 [  67751] TX : 0B 03 02 C4 00 0C 05 20 
  59 [  67810] RX : 0B 03 18 28 C0 44 9E 85 06 44 04 E9 05 3F 99 22 DF BE 32 55 6D 3F A2 B7 5A 3F 72 11 92 

 101 [  67911] TX : 0B 03 02 D0 00 0C 45 24 
  63 [  67974] RX : 0B 03 18 AC 47 43 E5 F1 AA 37 0C F8 5F C0 89 85 94 3F F0 E6 55 41 56 5B 81 BE A4 B9 7A 

 100 [  68074] TX : 0B 03 01 62 00 02 64 83 
  46 [  68120] RX : 0B 03 04 E3 46 42 6F F6 EE 

 100 [  68220] TX : 0B 03 01 6A 00 06 E4 82 
 370 [  68590] RX : 0B 03 0C 60 98 42 F3 37 A0 42 F3 FC 90 42 F3 54 28 

 100 [  68690] TX : 0D 03 02 88 00 0C C4 91 
  60 [  68750] RX : 0D 03 18 E6 4B 46 28 AA DB 43 3A 3A 9C 40 99 A3 F3 BF D2 BB 19 40 A4 20 1E 3F 6E 05 5E 

 100 [  68850] TX : 0D 03 01 62 00 02 64 E5 
 290 [  69140] RX : 0D 03 04 E3 1C 42 6F B0 FD 

 100 [  69240] TX : 0D 03 01 6A 00 06 E4 E4 
  70 [  69310] RX : 0D 03 0C C6 C9 42 F3 F7 A6 42 F2 93 EE 42 F4 37 40 

 100 [  69410] TX : 10 03 02 88 00 0C C7 1C 
 150 [  69560] RX : 10 03 18 1C 96 42 98 B8 C7 3D 2F 8E 6F 3C D2 D4 B1 BD 89 F7 A9 3F 09 58 44 3D 43 C4 71 

 100 [  69661] TX : 10 03 02 94 00 0C 06 DA 
  59 [  69720] RX : 10 03 18 84 A1 43 38 4F D6 3B B1 77 57 3D 6C 36 2B BD FA 4A 8B 3F 15 BE 15 3D CA 5A 92 

 100 [  69820] TX : 10 03 02 A0 00 0C 47 14 
  60 [  69880] RX : 10 03 18 FF 80 43 46 7E 0E 3D 09 75 EF 3D 6E 16 A6 BD C6 E6 2A 3F 14 FD B0 3D CC A2 0B 

 101 [  69981] TX : 10 03 02 AC 00 0C 87 17 
  79 [  70060] RX : 10 03 18 48 44 42 A5 51 8F 3D A3 32 57 3B 1C 4B C0 3B B8 AC 3C 3F 0C 20 17 3B 8E 48 A4 

 101 [  70161] TX : 10 03 02 B8 00 0C C7 13 
 390 [  70551] RX : 10 03 18 80 28 43 89 14 0C 3E AC 61 37 3D 8A CA 56 BD A2 59 C9 3F 09 F5 7F 3E 00 56 99 

 100 [  70651] TX : 10 03 02 C4 00 0C 06 CB 
  59 [  70710] RX : 10 03 18 8D DF 43 F4 01 9C 3F 56 9E 41 3E 3E 97 65 BD 8C FD CC 3F 21 9E B2 3E 96 FB 17 

 100 [  70811] TX : 10 03 01 62 00 02 67 68 
  29 [  70840] RX : 10 03 04 E5 3B 42 6F CD 7F 

 101 [  70941] TX : 10 03 01 6A 00 06 E7 69 
  49 [  70990] RX : 10 03 0C 03 83 42 F4 89 7B 42 F2 77 6A 42 F3 0B 93 

 100 [  71090] TX : 11 03 02 88 00 0C C6 CD 
 130 [  71220] RX : 11 03 18 10 C2 46 CF 99 8D 45 B8 EA 9C 40 19 2D 44 3F AF D9 4F 40 3F 62 33 3F 4D 24 EA 

 100 [  71320] TX : 11 03 01 62 00 02 66 B9 
  30 [  71350] RX : 11 03 04 E3 B8 42 6F 2C DF 

 100 [  71450] TX : 11 03 01 6A 00 06 E6 B8 
  70 [  71520] RX : 11 03 0C AA 60 42 F3 17 1F 42 F3 37 C2 42 F4 6E FD 

 100 [  71620] TX : 12 03 02 88 00 0C C6 FE 
  70 [  71690] RX : 12 03 18 C6 1F 46 34 E2 D3 42 6F 24 BB 40 77 52 C4 BD 08 56 A7 40 78 C4 A4 3F 7E CD DF 

 100 [  71790] TX : 12 03 01 62 00 02 66 8A 
  30 [  71820] RX : 12 03 04 E3 20 42 6F 9E 30 

 101 [  71921] TX : 12 03 01 6A 00 06 E6 8B 
 119 [  72040] RX : 12 03 0C B5 89 42 F0 53 2E 42 EF D4 6F 42 EE 46 D4 

 100 [  72140] TX : 32 03 12 16 00 06 24 B7 
  80 [  72220] RX : 32 03 0C 42 F4 29 FC 42 F5 4D 7A 42 F5 F7 4F 7B 90 

 100 [  72320] TX : 32 03 12 2A 00 06 E4 BB 
 110 [  72430] RX : 32 03 0C 44 EA E6 8D 44 4B 6A FE 45 14 AA 41 8E 10 

 100 [  72530] TX : 32 03 12 34 00 02 85 7E 
 121 [  72651] RX : 32 03 04 42 6F DB 1E 07 AD 

 100 [  72751] TX : 32 03 12 52 00 02 65 61 
  59 [  72810] RX : 32 03 04 3F 3F B4 21 72 30 

 100 [  72910] TX : 32 03 18 A0 00 04 47 48 
 100 [  73010] RX : 32 03 08 03 00 00 00 00 00 08 19 E3 8C 

 100 [  73120] TX : 33 03 03 ED 00 06 51 AB 
  40 [  73160] RX : 33 03 0C 44 19 9B B4 44 19 DF FB 44 19 BE 11 D4 74 

 100 [  73260] TX : 33 03 03 F9 00 0A 11 AA 
  50 [  73310] RX : 33 03 14 48 CA 7A 34 46 E1 DC 50 48 CF 87 E7 3F 79 EC 70 42 6F D9 22 B2 F5 

 101 [  73412] TX : 33 03 05 DB 00 14 31 20 
  68 [  73480] RX : 33 03 28 05 3C 44 89 00 00 00 00 05 3C 44 89 05 3C 44 89 00 A8 19 8E FF FF F8 A9 00 A8 12 37 00 A8 20 E5 05 5E C5 72 02 74 34 34 3E 82 

 100 [  73581] TX : 34 03 03 ED 00 06 50 1C 
  39 [  73620] RX : 34 03 0C 44 17 D2 FA 44 18 B9 5E 44 18 46 CF CF 81 

 101 [  73721] TX : 34 03 03 F9 00 0A 10 1D 
  49 [  73770] RX : 34 03 14 49 51 03 68 45 64 84 00 49 55 B4 A8 3F 80 00 00 42 6F D5 4E 94 98 

 100 [  73871] TX : 34 03 05 DB 00 14 30 97 
  69 [  73940] RX : 34 03 28 04 AB 0F BB FF FF F8 6F 04 AB 08 29 04 AB 17 4D 00 B4 66 6A FF BB A3 64 00 70 09 CD 00 F8 C3 07 04 E7 46 41 02 76 08 E4 16 A1 

 100 [  74041] TX : 35 03 03 ED 00 06 51 CD 
  39 [  74080] RX : 35 03 0C 44 17 66 3F 44 19 0A 88 44 18 3A 1C 05 5A 

 100 [  74181] TX : 35 03 03 F9 00 0A 11 CC 
  49 [  74230] RX : 35 03 14 48 1A 19 24 C7 5A 52 3C 48 24 82 31 3F 6F CC C8 42 6F D5 3A 46 B1 

 100 [  74330] TX : 35 03 05 DB 00 14 31 46 
  70 [  74400] RX : 35 03 28 02 5F 40 52 00 00 00 00 02 5F 40 52 02 5F 40 52 00 09 8E 69 FE CA A3 9A FE D4 32 03 01 3E EA CF 02 B1 76 62 01 91 F0 E0 79 33 

 100 [  74500] TX : 37 03 03 ED 00 06 50 2F 
  40 [  74540] RX : 37 03 0C 44 17 F1 6D 44 18 E5 77 44 18 6C 12 79 B0 

 101 [  74641] TX : 37 03 03 F9 00 0A 10 2E 
  49 [  74690] RX : 37 03 14 48 4C E0 61 46 98 B2 00 48 5B 05 95 3F 6D ED 35 42 6F D4 BD F8 6E 

 100 [  74791] TX : 37 03 05 DB 00 14 30 A4 
  68 [  74860] RX : 37 03 28 04 CA 52 14 00 00 00 00 04 CA 52 14 04 CA 52 14 00 7B EA BC FF FF F1 B6 00 7B DC 72 00 7B F9 07 05 24 09 7E 02 74 7A C5 8E 3D 

 100 [  74961] TX : 70 03 00 40 00 01 8F 3F 
  29 [  74990] RX : 70 03 02 49 01 32 1F 

 100 [  75090] TX : 70 03 00 48 00 01 0E FD 
  30 [  75120] RX : 70 03 02 80 50 A5 B3 

 100 [  75220] TX : 70 03 00 4A 00 01 AF 3D 
  30 [  75250] RX : 70 03 02 40 00 F5 8F 

 100 [  75350] TX : 70 03 00 4C 00 01 4F 3C 
  30 [  75380] RX : 70 03 02 04 10 C7 43 

 100 [  75480] TX : 01 03 02 88 00 0C C4 5D 
  60 [  75540] RX : 01 03 18 84 34 45 FB F1 11 43 61 26 F4 3F DE BA A2 BF 45 C1 18 40 04 32 42 3F 56 18 79 

 100 [  75641] TX : 01 03 02 94 00 0C 05 9B 
 389 [  76030] RX : 01 03 18 92 17 46 43 C3 68 43 B6 F5 3A 40 3C DD E4 BF A0 5F 47 40 60 97 FC 3F 57 9F 77 

 100 [  76130] TX : 01 03 02 A0 00 0C 44 55 
  60 [  76190] RX : 01 03 18 F0 B3 46 17 83 EA 41 9C 94 B6 40 26 97 4A BF 9B 03 9F 40 43 AC CA 3F 5A 6B 72 

 101 [  76291] TX : 01 03 02 AC 00 0C 84 56 
  58 [  76350] RX : 01 03 18 53 41 46 33 43 BE 41 AC F0 D7 3F D1 72 45 BF 36 40 F6 3F F5 23 C5 3F 5B A0 6F 

 100 [  76450] TX : 01 03 02 B8 00 0C C4 52 
  70 [  76520] RX : 01 03 18 1A E9 43 5C 8B F0 3E 19 34 70 3D 91 4F 7C BD 8C 38 E9 3E 0B 80 13 3F 05 22 37 

 100 [  76641] TX : 01 03 01 62 00 02 64 29 
 376 [  77017] RX : 01 03 04 E1 68 42 6F 3D 5F 

 100 [  77117] TX : 01 03 01 6A 00 06 E4 28 
  53 [  77170] RX : 01 03 0C 0C 74 42 F3 BA EE 42 F2 1E 86 42 F3 AB AD 

 101 [  77271] TX : 02 03 02 88 00 0C C4 6E 
  89 [  77360] RX : 02 03 18 61 44 40 A7 03 15 3E 76 C7 E0 BF 8C 48 63 C0 52 8A 65 40 69 51 CC BE 9A 6D 2B 

 100 [  77460] TX : 02 03 02 94 00 0C 05 A8 
 500 [  77960] RX : 02 03 18 C1 82 43 71 B4 09 3E 52 CA 51 3D B6 EC E5 BD 8D C3 69 3E 23 DF 2D 3F 0E B4 C9 

 100 [  78060] TX : 02 03 02 A0 00 0C 44 66 
  60 [  78120] RX : 02 03 18 ED 3D 43 8C D3 47 3E E9 88 F0 3D A6 C9 A1 BD 94 DE BC 3E 20 81 E3 3F 04 88 B3 

 102 [  78222] TX : 02 03 02 AC 00 0C 84 65 
  58 [  78280] RX : 02 03 18 67 8C 43 68 3C 5C 3D E3 5E D1 3D 89 18 EC BD 9C BA 00 3E 14 73 ED 3E EC 7D B8 

 100 [  78380] TX : 02 03 02 B8 00 0C C4 61 
  60 [  78440] RX : 02 03 18 1F 73 42 07 B3 23 40 38 D5 42 3E 9A 55 E0 BD EA F7 34 3E C6 37 73 3F 47 39 62 

 100 [  78540] TX : 02 03 02 C4 00 0C 05 B9 
 420 [  78960] RX : 02 03 18 99 CD 44 CB AD 96 44 22 7B A9 3F A5 41 E3 BE AA 93 1F 3F BF 22 48 3F 5D FE 67 

 102 [  79062] TX : 02 03 02 D0 00 0C 45 BD 
  58 [  79120] RX : 02 03 18 BA 12 43 0A AA 85 3F F9 15 D2 3E 1F 4A 6F C0 19 61 D4 40 1F 85 EB 3D 7F BE BA 

 100 [  79220] TX : 02 03 01 62 00 02 64 1A 
  30 [  79250] RX : 02 03 04 E2 49 42 6F 5E 11 

 100 [  79350] TX : 02 03 01 6A 00 06 E4 1B 
  50 [  79400] RX : 02 03 0C 37 EF 42 F3 E9 E0 42 F2 69 7B 42 F4 F4 7E 

 100 [  79500] TX : 03 03 02 88 00 0C C5 BF 
  70 [  79570] RX : 03 03 18 B8 C8 44 B3 03 EF 44 1D C2 14 3F 0D D4 18 3E 50 35 E2 3F 1D D6 68 3F 66 74 C6 

 102 [  79672] TX : 03 03 02 94 00 0C 04 79 